(1790638296.435734) vcan0 300#00FE000000000000
(1790638296.435908) vcan0 300#00EC000000000000
(1790638296.436896) vcan0 300#00FE000000000000
(1790638296.437094) vcan0 300#00ED000000000000
(1790638296.438440) vcan0 300#00FE000000000000
(1790638296.438640) vcan0 300#00ED000000000000
(1790638296.440619) vcan0 300#00EE000000000000
(1790638296.440667) vcan0 200#4200000000000000
(1790638296.440682) vcan0 300#00FD000000000000
(1790638296.441942) vcan0 300#00FC000000000000
(1790638296.442211) vcan0 300#00EF000000000000
(1790638296.443121) vcan0 300#00FC000000000000
(1790638296.443371) vcan0 300#00EF000000000000
(1790638296.444368) vcan0 300#00FC000000000000
(1790638296.444558) vcan0 300#00EF000000000000
(1790638296.445900) vcan0 300#00FB000000000000
(1790638296.445901) vcan0 300#00F0000000000000
(1790638296.447154) vcan0 300#00F0000000000000
(1790638296.450751) vcan0 100#0D87000000000000
(1790638296.450752) vcan0 100#0DA4000000000000
(1790638296.450801) vcan0 300#00FA000000000000
(1790638296.450808) vcan0 300#00F2000000000000
(1790638296.460388) vcan0 300#00F6000000000000
(1790638296.460407) vcan0 200#4200000000000000
(1790638296.460449) vcan0 300#00F5000000000000
(1790638296.471726) vcan0 100#0DA5000000000000
(1790638296.471854) vcan0 300#00F2000000000000
(1790638296.473211) vcan0 100#0D89000000000000
(1790638296.473333) vcan0 300#00F9000000000000
(1790638296.481437) vcan0 300#00FC000000000000
(1790638296.481755) vcan0 300#00EF000000000000
(1790638296.491117) vcan0 100#0DA5000000000000
(1790638296.491252) vcan0 200#4200000000000000
(1790638296.491272) vcan0 300#00EB000000000000
(1790638296.491449) vcan0 100#0D8A000000000000
(1790638296.491478) vcan0 300#00FF000000000000
(1790638296.500489) vcan0 300#0102000000000000
(1790638296.500587) vcan0 300#00E8000000000000
(1790638296.511585) vcan0 100#0DA6000000000000
(1790638296.511667) vcan0 300#00E4000000000000
(1790638296.511829) vcan0 100#0D8B000000000000
(1790638296.511874) vcan0 200#4200000000000000
(1790638296.511882) vcan0 300#0105000000000000
(1790638296.519762) vcan0 300#00E0000000000000
(1790638296.521663) vcan0 300#0108000000000000
(1790638296.530978) vcan0 100#0DA6000000000000
(1790638296.531085) vcan0 300#00DC000000000000
(1790638296.531256) vcan0 100#0D8C000000000000
(1790638296.531283) vcan0 300#010B000000000000
(1790638296.540769) vcan0 200#4200000000000000
(1790638296.540795) vcan0 300#010D000000000000
(1790638296.540861) vcan0 300#00D8000000000000
(1790638296.550110) vcan0 100#0DA7000000000000
(1790638296.550216) vcan0 300#00D4000000000000
(1790638296.550378) vcan0 100#0D8E000000000000
(1790638296.550403) vcan0 300#0110000000000000
(1790638296.560905) vcan0 300#00CF000000000000
(1790638296.560992) vcan0 200#4200000000000000
(1790638296.561017) vcan0 300#0113000000000000
(1790638296.570008) vcan0 100#0DA7000000000000
(1790638296.570125) vcan0 300#00CB000000000000
(1790638296.572280) vcan0 100#0D8F000000000000
(1790638296.572394) vcan0 300#0115000000000000
(1790638296.580502) vcan0 300#00C7000000000000
(1790638296.580885) vcan0 300#0117000000000000
(1790638296.590294) vcan0 100#0DA8000000000000
(1790638296.590447) vcan0 200#4200000000000000
(1790638296.590464) vcan0 300#00C2000000000000
(1790638296.590483) vcan0 400#0100000000000000
(1790638296.590758) vcan0 100#0D90000000000000
(1790638296.590866) vcan0 300#0119000000000000
(1790638296.600563) vcan0 300#00BE000000000000
(1790638296.601189) vcan0 300#011B000000000000
(1790638296.610208) vcan0 100#0DA8000000000000
(1790638296.610357) vcan0 300#00B9000000000000
(1790638296.610490) vcan0 100#0D91000000000000
(1790638296.610524) vcan0 200#4200000000000000
(1790638296.610542) vcan0 300#011D000000000000
(1790638296.620720) vcan0 300#00B4000000000000
(1790638296.621032) vcan0 300#011F000000000000
(1790638296.630907) vcan0 100#0DA9000000000000
(1790638296.631105) vcan0 300#00AF000000000000
(1790638296.631494) vcan0 100#0D92000000000000
(1790638296.631527) vcan0 300#0121000000000000
(1790638296.639633) vcan0 200#4200000000000000
(1790638296.639831) vcan0 300#00AB000000000000
(1790638296.641634) vcan0 300#0122000000000000
(1790638296.650460) vcan0 100#0DA9000000000000
(1790638296.650621) vcan0 300#00A5000000000000
(1790638296.650630) vcan0 100#0D93000000000000
(1790638296.650668) vcan0 300#0123000000000000
(1790638296.660602) vcan0 200#4200000000000000
(1790638296.660639) vcan0 300#0125000000000000
(1790638296.661023) vcan0 300#00A0000000000000
(1790638296.670621) vcan0 100#0DA9000000000000
(1790638296.670749) vcan0 300#009B000000000000
(1790638296.671081) vcan0 100#0D94000000000000
(1790638296.671111) vcan0 300#0126000000000000
(1790638296.680611) vcan0 300#0096000000000000
(1790638296.680766) vcan0 300#0127000000000000
(1790638296.690909) vcan0 100#0DAA000000000000
(1790638296.690972) vcan0 100#0D95000000000000
(1790638296.690998) vcan0 300#0128000000000000
(1790638296.691012) vcan0 200#4200000000000000
(1790638296.691026) vcan0 300#0091000000000000
(1790638296.700927) vcan0 300#008B000000000000
(1790638296.701216) vcan0 300#0129000000000000
(1790638296.710518) vcan0 100#0DAA000000000000
(1790638296.710645) vcan0 300#0086000000000000
(1790638296.710690) vcan0 100#0D96000000000000
(1790638296.710720) vcan0 200#4200000000000000
(1790638296.710735) vcan0 300#012A000000000000
(1790638296.721147) vcan0 300#0081000000000000
(1790638296.721596) vcan0 300#012A000000000000
(1790638296.730394) vcan0 100#0DAA000000000000
(1790638296.730525) vcan0 300#007C000000000000
(1790638296.730525) vcan0 100#0D97000000000000
(1790638296.730561) vcan0 300#012B000000000000
(1790638296.740952) vcan0 200#4200000000000000
(1790638296.741068) vcan0 300#0076000000000000
(1790638296.741244) vcan0 300#012B000000000000
(1790638296.750629) vcan0 100#0DAA000000000000
(1790638296.750732) vcan0 300#0070000000000000
(1790638296.750895) vcan0 100#0D98000000000000
(1790638296.750922) vcan0 300#012B000000000000
(1790638296.761276) vcan0 300#006A000000000000
(1790638296.761540) vcan0 200#4200000000000000
(1790638296.761570) vcan0 300#012B000000000000
(1790638296.770739) vcan0 100#0DAB000000000000
(1790638296.770900) vcan0 300#0065000000000000
(1790638296.771294) vcan0 100#0D99000000000000
(1790638296.771425) vcan0 300#012B000000000000
(1790638296.779660) vcan0 300#0060000000000000
(1790638296.781125) vcan0 300#012B000000000000
(1790638296.790394) vcan0 100#0DAB000000000000
(1790638296.790503) vcan0 200#4200000000000000
(1790638296.790520) vcan0 300#005A000000000000
(1790638296.790543) vcan0 100#0D9A000000000000
(1790638296.790571) vcan0 300#012B000000000000
(1790638296.799932) vcan0 300#0054000000000000
(1790638296.801960) vcan0 300#012B000000000000
(1790638296.809788) vcan0 100#0DAB000000000000
(1790638296.809845) vcan0 300#004F000000000000
(1790638296.811805) vcan0 100#0D9B000000000000
(1790638296.811873) vcan0 200#4200000000000000
(1790638296.811883) vcan0 300#012A000000000000
(1790638296.820352) vcan0 300#0049000000000000
(1790638296.820521) vcan0 300#012A000000000000
(1790638296.830453) vcan0 100#0DAB000000000000
(1790638296.830520) vcan0 300#0043000000000000
(1790638296.831981) vcan0 100#0D9C000000000000
(1790638296.832045) vcan0 300#0129000000000000
(1790638296.840412) vcan0 200#4200000000000000
(1790638296.840534) vcan0 300#003D000000000000
(1790638296.840574) vcan0 300#0128000000000000
(1790638296.850017) vcan0 100#0DAB000000000000
(1790638296.850087) vcan0 300#0037000000000000
(1790638296.851889) vcan0 100#0D9D000000000000
(1790638296.851957) vcan0 300#0127000000000000
(1790638296.859843) vcan0 300#0032000000000000
(1790638296.860443) vcan0 200#4200000000000000
(1790638296.860463) vcan0 300#0126000000000000
(1790638296.871249) vcan0 100#0DAB000000000000
(1790638296.871345) vcan0 300#002B000000000000
(1790638296.871595) vcan0 100#0D9E000000000000
(1790638296.871609) vcan0 300#0125000000000000
(1790638296.880563) vcan0 300#0025000000000000
(1790638296.880906) vcan0 300#0124000000000000
(1790638296.891026) vcan0 100#0D9E000000000000
(1790638296.891028) vcan0 100#0DAB000000000000
(1790638296.891091) vcan0 200#4300000000000000
(1790638296.891100) vcan0 300#0122000000000000
(1790638296.891101) vcan0 300#001F000000000000
(1790638296.901501) vcan0 300#0019000000000000
(1790638296.901576) vcan0 300#0121000000000000
(1790638296.910875) vcan0 100#0DAB000000000000
(1790638296.910948) vcan0 300#0013000000000000
(1790638296.911185) vcan0 100#0D9F000000000000
(1790638296.911208) vcan0 200#4200000000000000
(1790638296.911222) vcan0 300#011F000000000000
(1790638296.911238) vcan0 400#0000000000000000
(1790638296.911249) vcan0 500#A400000000000000
(1790638296.920563) vcan0 300#011D000000000000
(1790638296.920600) vcan0 300#000D000000000000
(1790638296.930482) vcan0 100#0DA0000000000000
(1790638296.930550) vcan0 300#011B000000000000
(1790638296.930647) vcan0 100#0DAB000000000000
(1790638296.930732) vcan0 300#0007000000000000
(1790638296.940781) vcan0 200#4300000000000000
(1790638296.940843) vcan0 300#0001000000000000
(1790638296.941090) vcan0 300#0119000000000000
(1790638296.950741) vcan0 100#0DAB000000000000
(1790638296.950812) vcan0 300#FFFC000000000000
(1790638296.950901) vcan0 100#0DA1000000000000
(1790638296.950932) vcan0 300#0117000000000000
(1790638296.961184) vcan0 300#FFF6000000000000
(1790638296.961443) vcan0 200#4200000000000000
(1790638296.961467) vcan0 300#0115000000000000
(1790638296.969951) vcan0 100#0DAB000000000000
(1790638296.970021) vcan0 300#FFF1000000000000
(1790638296.971875) vcan0 100#0DA1000000000000
(1790638296.971897) vcan0 300#0113000000000000
(1790638296.980459) vcan0 300#FFEA000000000000
(1790638296.980660) vcan0 300#0110000000000000
(1790638296.989872) vcan0 100#0DAB000000000000
(1790638296.989998) vcan0 200#4300000000000000
(1790638296.990013) vcan0 300#FFE5000000000000
(1790638296.990399) vcan0 100#0DA2000000000000
(1790638296.990434) vcan0 300#010E000000000000
(1790638297.000002) vcan0 300#FFDF000000000000
(1790638297.000407) vcan0 300#010B000000000000
(1790638297.009804) vcan0 100#0DAB000000000000
(1790638297.009928) vcan0 300#FFD9000000000000
(1790638297.012596) vcan0 100#0DA3000000000000
(1790638297.012624) vcan0 200#4200000000000000
(1790638297.012639) vcan0 300#0108000000000000
(1790638297.019679) vcan0 300#FFD3000000000000
(1790638297.020542) vcan0 300#0106000000000000
(1790638297.031253) vcan0 100#0DAB000000000000
(1790638297.031291) vcan0 300#FFCC000000000000
(1790638297.032249) vcan0 100#0DA3000000000000
(1790638297.032358) vcan0 300#0102000000000000
(1790638297.040474) vcan0 200#4300000000000000
(1790638297.040511) vcan0 300#FFC7000000000000
(1790638297.040645) vcan0 300#00FF000000000000
(1790638297.049887) vcan0 100#0DAB000000000000
(1790638297.049919) vcan0 300#FFC1000000000000
(1790638297.051199) vcan0 100#0DA4000000000000
(1790638297.051294) vcan0 300#00FC000000000000
(1790638297.061110) vcan0 200#4200000000000000
(1790638297.061192) vcan0 300#00F9000000000000
(1790638297.061394) vcan0 300#FFBA000000000000
(1790638297.070848) vcan0 100#0DAB000000000000
(1790638297.070926) vcan0 300#FFB5000000000000
(1790638297.071267) vcan0 100#0DA5000000000000
(1790638297.071345) vcan0 300#00F5000000000000
(1790638297.080087) vcan0 300#FFB0000000000000
(1790638297.081629) vcan0 300#00F2000000000000
(1790638297.090035) vcan0 100#0DAB000000000000
(1790638297.090113) vcan0 200#4300000000000000
(1790638297.090133) vcan0 300#FFAA000000000000
(1790638297.090154) vcan0 400#0000000000000000
(1790638297.090170) vcan0 500#0900000000000000
(1790638297.090185) vcan0 7DF#0201050000000000
(1790638297.090585) vcan0 100#0DA5000000000000
(1790638297.090675) vcan0 300#00EF000000000000
(1790638297.100555) vcan0 300#FFA4000000000000
(1790638297.100732) vcan0 300#00EB000000000000
(1790638297.110609) vcan0 100#0DAB000000000000
(1790638297.110638) vcan0 300#FF9E000000000000
(1790638297.110813) vcan0 100#0DA6000000000000
(1790638297.110899) vcan0 200#4200000000000000
(1790638297.110911) vcan0 300#00E7000000000000
(1790638297.120419) vcan0 300#FF99000000000000
(1790638297.120608) vcan0 300#00E3000000000000
(1790638297.130344) vcan0 100#0DAA000000000000
(1790638297.130369) vcan0 300#FF93000000000000
(1790638297.130737) vcan0 100#0DA6000000000000
(1790638297.130812) vcan0 300#00DF000000000000
(1790638297.141344) vcan0 200#4300000000000000
(1790638297.141371) vcan0 300#FF8D000000000000
(1790638297.141526) vcan0 300#00DB000000000000
(1790638297.149804) vcan0 100#0DAA000000000000
(1790638297.149835) vcan0 300#FF88000000000000
(1790638297.152517) vcan0 100#0DA7000000000000
(1790638297.152585) vcan0 300#00D6000000000000
(1790638297.160365) vcan0 300#FF82000000000000
(1790638297.160375) vcan0 200#4200000000000000
(1790638297.160390) vcan0 300#00D3000000000000
(1790638297.169928) vcan0 100#0DAA000000000000
(1790638297.169945) vcan0 300#FF7D000000000000
(1790638297.170904) vcan0 100#0DA7000000000000
(1790638297.170964) vcan0 300#00CF000000000000
(1790638297.180175) vcan0 300#FF78000000000000
(1790638297.180431) vcan0 300#00CA000000000000
(1790638297.189939) vcan0 100#0DAA000000000000
(1790638297.189957) vcan0 200#4300000000000000
(1790638297.189964) vcan0 300#FF73000000000000
(1790638297.191917) vcan0 100#0DA8000000000000
(1790638297.191934) vcan0 300#00C5000000000000
(1790638297.200377) vcan0 300#00C1000000000000
(1790638297.200854) vcan0 300#FF6D000000000000
(1790638297.209785) vcan0 100#0DA9000000000000
(1790638297.209862) vcan0 300#FF68000000000000
(1790638297.211158) vcan0 100#0DA8000000000000
(1790638297.211224) vcan0 200#4200000000000000
(1790638297.211233) vcan0 300#00BC000000000000
(1790638297.220381) vcan0 300#FF63000000000000
(1790638297.220553) vcan0 300#00B8000000000000
(1790638297.230778) vcan0 100#0DA8000000000000
(1790638297.230836) vcan0 300#00B3000000000000
(1790638297.230903) vcan0 100#0DA9000000000000
(1790638297.230912) vcan0 300#FF5D000000000000
(1790638297.239703) vcan0 200#4300000000000000
(1790638297.239798) vcan0 300#FF59000000000000
(1790638297.241046) vcan0 300#00AE000000000000
(1790638297.249673) vcan0 100#0DA9000000000000
(1790638297.249751) vcan0 300#FF54000000000000
(1790638297.252743) vcan0 100#0DA9000000000000
(1790638297.252798) vcan0 300#00A8000000000000
(1790638297.260629) vcan0 300#FF4F000000000000
(1790638297.260919) vcan0 200#4200000000000000
(1790638297.261048) vcan0 300#00A4000000000000
(1790638297.270775) vcan0 100#0DA8000000000000
(1790638297.270873) vcan0 300#FF4A000000000000
(1790638297.270915) vcan0 100#0DA9000000000000
(1790638297.270928) vcan0 300#009F000000000000
(1790638297.280776) vcan0 300#FF45000000000000
(1790638297.280876) vcan0 300#009A000000000000
(1790638297.290589) vcan0 100#0DA8000000000000
(1790638297.290650) vcan0 200#4300000000000000
(1790638297.290658) vcan0 300#FF41000000000000
(1790638297.290716) vcan0 100#0DA9000000000000
(1790638297.290744) vcan0 300#0095000000000000
(1790638297.300394) vcan0 300#FF3C000000000000
(1790638297.301914) vcan0 300#008F000000000000
(1790638297.309740) vcan0 100#0DA7000000000000
(1790638297.309798) vcan0 300#FF38000000000000
(1790638297.311626) vcan0 100#0DAA000000000000
(1790638297.311691) vcan0 200#4200000000000000
(1790638297.311699) vcan0 300#008A000000000000
(1790638297.319849) vcan0 300#FF33000000000000
(1790638297.321191) vcan0 300#0085000000000000
(1790638297.330007) vcan0 100#0DA7000000000000
(1790638297.330101) vcan0 300#FF2F000000000000
(1790638297.331788) vcan0 100#0DAA000000000000
(1790638297.331840) vcan0 300#007F000000000000
(1790638297.339977) vcan0 200#4300000000000000
(1790638297.340063) vcan0 300#FF2B000000000000
(1790638297.340390) vcan0 300#007B000000000000
(1790638297.349719) vcan0 100#0DA7000000000000
(1790638297.349839) vcan0 300#FF27000000000000
(1790638297.351587) vcan0 100#0DAA000000000000
(1790638297.351656) vcan0 300#0074000000000000
(1790638297.360380) vcan0 300#FF22000000000000
(1790638297.360458) vcan0 200#4200000000000000
(1790638297.360477) vcan0 300#0070000000000000
(1790638297.369846) vcan0 100#0DA6000000000000
(1790638297.369954) vcan0 300#FF1F000000000000
(1790638297.371797) vcan0 100#0DAB000000000000
(1790638297.371870) vcan0 300#0069000000000000
(1790638297.381364) vcan0 300#FF1A000000000000
(1790638297.381567) vcan0 300#0064000000000000
(1790638297.390879) vcan0 100#0DA6000000000000
(1790638297.391013) vcan0 200#4300000000000000
(1790638297.391027) vcan0 300#FF17000000000000
(1790638297.391271) vcan0 100#0DAB000000000000
(1790638297.391365) vcan0 300#005E000000000000
(1790638297.400461) vcan0 300#FF13000000000000
(1790638297.400724) vcan0 300#0059000000000000
(1790638297.410090) vcan0 100#0DA5000000000000
(1790638297.410250) vcan0 300#FF0F000000000000
(1790638297.410585) vcan0 100#0DAB000000000000
(1790638297.410703) vcan0 200#4200000000000000
(1790638297.410718) vcan0 300#0053000000000000
(1790638297.410736) vcan0 400#0100000000000000
(1790638297.421197) vcan0 300#004D000000000000
(1790638297.421336) vcan0 300#FF0C000000000000
(1790638297.430421) vcan0 100#0DA4000000000000
(1790638297.430525) vcan0 300#FF08000000000000
(1790638297.432239) vcan0 100#0DAB000000000000
(1790638297.432345) vcan0 300#0047000000000000
(1790638297.441225) vcan0 200#4300000000000000
(1790638297.441312) vcan0 300#FF05000000000000
(1790638297.441339) vcan0 300#0041000000000000
(1790638297.450478) vcan0 100#0DA4000000000000
(1790638297.450587) vcan0 300#FF02000000000000
(1790638297.450590) vcan0 100#0DAB000000000000
(1790638297.450614) vcan0 300#003C000000000000
(1790638297.460129) vcan0 300#FEFF000000000000
(1790638297.460441) vcan0 200#4300000000000000
(1790638297.460554) vcan0 300#0036000000000000
(1790638297.470230) vcan0 100#0DA3000000000000
(1790638297.470354) vcan0 300#FEFC000000000000
(1790638297.470399) vcan0 100#0DAB000000000000
(1790638297.470427) vcan0 300#0030000000000000
(1790638297.480212) vcan0 300#FEF9000000000000
(1790638297.480483) vcan0 300#002A000000000000
(1790638297.490051) vcan0 100#0DA3000000000000
(1790638297.490159) vcan0 200#4300000000000000
(1790638297.490175) vcan0 300#FEF6000000000000
(1790638297.492006) vcan0 100#0DAB000000000000
(1790638297.492113) vcan0 300#0023000000000000
(1790638297.500575) vcan0 300#001E000000000000
(1790638297.501263) vcan0 300#FEF3000000000000
(1790638297.509938) vcan0 100#0DA2000000000000
(1790638297.510005) vcan0 300#FEF1000000000000
(1790638297.511168) vcan0 100#0DAB000000000000
(1790638297.511223) vcan0 200#4300000000000000
(1790638297.511232) vcan0 300#0018000000000000
(1790638297.519947) vcan0 300#FEEE000000000000
(1790638297.521912) vcan0 300#0011000000000000
(1790638297.530097) vcan0 100#0DA1000000000000
(1790638297.530244) vcan0 300#FEEC000000000000
(1790638297.531819) vcan0 100#0DAB000000000000
(1790638297.531903) vcan0 300#000B000000000000
(1790638297.539973) vcan0 200#4300000000000000
(1790638297.540132) vcan0 300#FEEA000000000000
(1790638297.541884) vcan0 300#0005000000000000
(1790638297.550856) vcan0 100#0DA0000000000000
(1790638297.550864) vcan0 100#0DAB000000000000
(1790638297.550950) vcan0 300#0000000000000000
(1790638297.550968) vcan0 300#FEE7000000000000
(1790638297.560541) vcan0 200#4300000000000000
(1790638297.560640) vcan0 300#FFFB000000000000
(1790638297.561034) vcan0 300#FEE5000000000000
(1790638297.570031) vcan0 100#0DA0000000000000
(1790638297.570160) vcan0 300#FEE4000000000000
(1790638297.571984) vcan0 100#0DAB000000000000
(1790638297.572085) vcan0 300#FFF4000000000000
(1790638297.580378) vcan0 300#FFEF000000000000
(1790638297.580435) vcan0 300#FEE2000000000000
(1790638297.589731) vcan0 100#0D9F000000000000
(1790638297.589849) vcan0 200#4300000000000000
(1790638297.589866) vcan0 300#FEE0000000000000
(1790638297.589883) vcan0 400#0000000000000000
(1790638297.591648) vcan0 100#0DAB000000000000
(1790638297.591725) vcan0 300#FFE9000000000000
(1790638297.600440) vcan0 300#FEDE000000000000
(1790638297.602100) vcan0 300#FFE2000000000000
(1790638297.610547) vcan0 100#0D9E000000000000
(1790638297.610659) vcan0 300#FEDD000000000000
(1790638297.610926) vcan0 100#0DAB000000000000
(1790638297.611027) vcan0 200#4300000000000000
(1790638297.611043) vcan0 300#FFDD000000000000
(1790638297.620926) vcan0 300#FFD7000000000000
(1790638297.620952) vcan0 300#FEDB000000000000
(1790638297.630016) vcan0 100#0D9D000000000000
(1790638297.630160) vcan0 300#FEDA000000000000
(1790638297.630475) vcan0 100#0DAB000000000000
(1790638297.630501) vcan0 300#FFD1000000000000
(1790638297.640542) vcan0 200#4300000000000000
(1790638297.640675) vcan0 300#FED9000000000000
(1790638297.640762) vcan0 300#FFCB000000000000
(1790638297.649864) vcan0 100#0D9D000000000000
(1790638297.649978) vcan0 300#FED8000000000000
(1790638297.652912) vcan0 100#0DAB000000000000
(1790638297.653049) vcan0 300#FFC4000000000000
(1790638297.662808) vcan0 300#FED7000000000000
(1790638297.663095) vcan0 200#4300000000000000
(1790638297.663145) vcan0 300#FFBE000000000000
(1790638297.670205) vcan0 100#0D9C000000000000
(1790638297.670374) vcan0 300#FED7000000000000
(1790638297.670788) vcan0 100#0DAB000000000000
(1790638297.670926) vcan0 300#FFBA000000000000
(1790638297.681216) vcan0 300#FED6000000000000
(1790638297.681584) vcan0 300#FFB3000000000000
(1790638297.691195) vcan0 100#0D9B000000000000
(1790638297.691403) vcan0 100#0DAB000000000000
(1790638297.691429) vcan0 200#4300000000000000
(1790638297.691436) vcan0 300#FFAE000000000000
(1790638297.691448) vcan0 300#FED5000000000000
(1790638297.701046) vcan0 300#FED5000000000000
(1790638297.701354) vcan0 300#FFA8000000000000
(1790638297.710455) vcan0 100#0D9A000000000000
(1790638297.710554) vcan0 300#FED5000000000000
(1790638297.710858) vcan0 100#0DAB000000000000
(1790638297.710928) vcan0 200#4300000000000000
(1790638297.710941) vcan0 300#FFA3000000000000
(1790638297.720508) vcan0 300#FED5000000000000
(1790638297.720642) vcan0 300#FF9D000000000000
(1790638297.731402) vcan0 100#0DAB000000000000
(1790638297.731461) vcan0 100#0D99000000000000
(1790638297.731472) vcan0 300#FF97000000000000
(1790638297.731480) vcan0 300#FED5000000000000
(1790638297.740024) vcan0 200#4300000000000000
(1790638297.740113) vcan0 300#FED5000000000000
(1790638297.740403) vcan0 300#FF92000000000000
(1790638297.750911) vcan0 100#0D98000000000000
(1790638297.750910) vcan0 100#0DAA000000000000
(1790638297.750971) vcan0 300#FF8C000000000000
(1790638297.750988) vcan0 300#FED5000000000000
(1790638297.759790) vcan0 300#FED5000000000000
(1790638297.760813) vcan0 200#4300000000000000
(1790638297.760863) vcan0 300#FF87000000000000
(1790638297.770339) vcan0 100#0D97000000000000
(1790638297.770398) vcan0 300#FED6000000000000
(1790638297.771935) vcan0 100#0DAA000000000000
(1790638297.771990) vcan0 300#FF81000000000000
(1790638297.779708) vcan0 300#FED6000000000000
(1790638297.780989) vcan0 300#FF7C000000000000
(1790638297.789839) vcan0 100#0D96000000000000
(1790638297.789918) vcan0 200#4300000000000000
(1790638297.789931) vcan0 300#FED7000000000000
(1790638297.791490) vcan0 100#0DAA000000000000
(1790638297.791568) vcan0 300#FF76000000000000
(1790638297.799640) vcan0 300#FED7000000000000
(1790638297.801041) vcan0 300#FF71000000000000
(1790638297.810133) vcan0 100#0D95000000000000
(1790638297.810203) vcan0 300#FED8000000000000
(1790638297.811137) vcan0 100#0DA9000000000000
(1790638297.811195) vcan0 200#4300000000000000
(1790638297.811204) vcan0 300#FF6C000000000000
(1790638297.820614) vcan0 300#FF67000000000000
(1790638297.821030) vcan0 300#FEDA000000000000
(1790638297.829670) vcan0 100#0D94000000000000
(1790638297.829721) vcan0 300#FEDB000000000000
(1790638297.830827) vcan0 100#0DA9000000000000
(1790638297.830882) vcan0 300#FF62000000000000
(1790638297.839981) vcan0 200#4300000000000000
(1790638297.840031) vcan0 300#FEDC000000000000
(1790638297.841076) vcan0 300#FF5C000000000000
(1790638297.850803) vcan0 100#0D93000000000000
(1790638297.850823) vcan0 300#FEDD000000000000
(1790638297.851352) vcan0 100#0DA9000000000000
(1790638297.851407) vcan0 300#FF57000000000000
(1790638297.860540) vcan0 300#FEDF000000000000
(1790638297.861160) vcan0 200#4300000000000000
(1790638297.861211) vcan0 300#FF53000000000000
(1790638297.870453) vcan0 100#0DA8000000000000
(1790638297.870454) vcan0 100#0D92000000000000
(1790638297.870499) vcan0 300#FF4E000000000000
(1790638297.870512) vcan0 300#FEE0000000000000
(1790638297.881063) vcan0 300#FF49000000000000
(1790638297.881263) vcan0 300#FEE2000000000000
(1790638297.890770) vcan0 100#0DA8000000000000
(1790638297.890805) vcan0 100#0D91000000000000
(1790638297.890820) vcan0 200#4300000000000000
(1790638297.890828) vcan0 300#FEE4000000000000
(1790638297.890831) vcan0 300#FF44000000000000
(1790638297.900309) vcan0 300#FEE6000000000000
(1790638297.901561) vcan0 300#FF3F000000000000
(1790638297.911250) vcan0 100#0DA8000000000000
(1790638297.911303) vcan0 200#4300000000000000
(1790638297.911305) vcan0 100#0D8F000000000000
(1790638297.911313) vcan0 300#FF3B000000000000
(1790638297.911319) vcan0 300#FEE8000000000000
(1790638297.911323) vcan0 400#0400000000000000
(1790638297.911329) vcan0 500#A500000000000000
(1790638297.911335) vcan0 7DF#0201050000000000
(1790638297.920388) vcan0 300#FF37000000000000
(1790638297.920671) vcan0 300#FEEA000000000000
(1790638297.930588) vcan0 100#0DA7000000000000
(1790638297.930670) vcan0 300#FF32000000000000
(1790638297.930838) vcan0 100#0D8E000000000000
(1790638297.930919) vcan0 300#FEED000000000000
(1790638297.940507) vcan0 300#FF2E000000000000
(1790638297.940748) vcan0 200#4300000000000000
(1790638297.940769) vcan0 300#FEEF000000000000
(1790638297.950446) vcan0 100#0D8D000000000000
(1790638297.950532) vcan0 300#FEF1000000000000
(1790638297.951922) vcan0 100#0DA7000000000000
(1790638297.951997) vcan0 300#FF29000000000000
(1790638297.961100) vcan0 200#4300000000000000
(1790638297.961182) vcan0 300#FF25000000000000
(1790638297.961328) vcan0 300#FEF4000000000000
(1790638297.970479) vcan0 100#0D8C000000000000
(1790638297.970569) vcan0 300#FEF7000000000000
(1790638297.971473) vcan0 100#0DA6000000000000
(1790638297.971554) vcan0 300#FF21000000000000
(1790638297.981317) vcan0 300#FF1D000000000000
(1790638297.981673) vcan0 300#FEFA000000000000
(1790638297.990630) vcan0 100#0D8B000000000000
(1790638297.990709) vcan0 200#4300000000000000
(1790638297.990718) vcan0 100#0DA6000000000000
(1790638297.990722) vcan0 300#FEFD000000000000
(1790638297.990741) vcan0 300#FF1A000000000000
(1790638297.999618) vcan0 300#FEFF000000000000
(1790638298.000518) vcan0 300#FF16000000000000
(1790638298.010505) vcan0 100#0D89000000000000
(1790638298.010533) vcan0 300#FF03000000000000
(1790638298.011605) vcan0 100#0DA5000000000000
(1790638298.011627) vcan0 200#4300000000000000
(1790638298.011639) vcan0 300#FF12000000000000
(1790638298.021067) vcan0 300#FF0E000000000000
(1790638298.021326) vcan0 300#FF06000000000000
(1790638298.030443) vcan0 100#0DA5000000000000
(1790638298.030527) vcan0 300#FF0B000000000000
(1790638298.030694) vcan0 100#0D88000000000000
(1790638298.030716) vcan0 300#FF09000000000000
(1790638298.040515) vcan0 200#4300000000000000
(1790638298.040615) vcan0 300#FF0D000000000000
(1790638298.040920) vcan0 300#FF08000000000000
(1790638298.050260) vcan0 100#0D87000000000000
(1790638298.050340) vcan0 300#FF10000000000000
(1790638298.051775) vcan0 100#0DA4000000000000
(1790638298.051848) vcan0 300#FF04000000000000
(1790638298.060294) vcan0 300#FF14000000000000
(1790638298.062227) vcan0 200#4300000000000000
(1790638298.062282) vcan0 300#FF01000000000000
(1790638298.070142) vcan0 100#0D86000000000000
(1790638298.070207) vcan0 300#FF18000000000000
(1790638298.072020) vcan0 100#0DA3000000000000
(1790638298.072278) vcan0 300#FEFE000000000000
(1790638298.088488) vcan0 300#FF1F000000000000
(1790638298.089010) vcan0 300#FEF9000000000000
(1790638298.089839) vcan0 100#0D84000000000000
(1790638298.089903) vcan0 200#4300000000000000
(1790638298.089913) vcan0 300#FF1F000000000000
(1790638298.089925) vcan0 400#0100000000000000
(1790638298.089932) vcan0 500#0A00000000000000
(1790638298.090471) vcan0 100#0DA3000000000000
(1790638298.090541) vcan0 300#FEF8000000000000
(1790638298.100295) vcan0 300#FF23000000000000
(1790638298.100793) vcan0 300#FEF5000000000000
(1790638298.109886) vcan0 100#0D83000000000000
(1790638298.109968) vcan0 300#FF27000000000000
(1790638298.110676) vcan0 100#0DA2000000000000
(1790638298.110752) vcan0 200#4300000000000000
(1790638298.110763) vcan0 300#FEF3000000000000
(1790638298.119819) vcan0 300#FF2C000000000000
(1790638298.120429) vcan0 300#FEF0000000000000
(1790638298.130383) vcan0 100#0DA1000000000000
(1790638298.130512) vcan0 300#FEEE000000000000
(1790638298.130797) vcan0 100#0D81000000000000
(1790638298.130882) vcan0 300#FF30000000000000
(1790638298.140934) vcan0 200#4300000000000000
(1790638298.140964) vcan0 300#FEEB000000000000
(1790638298.141009) vcan0 300#FF35000000000000
(1790638298.149864) vcan0 100#0D80000000000000
(1790638298.149946) vcan0 300#FF39000000000000
(1790638298.151315) vcan0 100#0DA1000000000000
(1790638298.151418) vcan0 300#FEE9000000000000
(1790638298.161284) vcan0 200#4300000000000000
(1790638298.161346) vcan0 300#FEE7000000000000
(1790638298.161483) vcan0 300#FF3E000000000000
(1790638298.170202) vcan0 100#0D7F000000000000
(1790638298.170266) vcan0 300#FF42000000000000
(1790638298.172447) vcan0 100#0DA0000000000000
(1790638298.172509) vcan0 300#FEE5000000000000
(1790638298.181067) vcan0 300#FEE3000000000000
(1790638298.181096) vcan0 300#FF47000000000000
(1790638298.189772) vcan0 100#0D7D000000000000
(1790638298.189859) vcan0 200#4300000000000000
(1790638298.189873) vcan0 300#FF4B000000000000
(1790638298.190592) vcan0 100#0D9F000000000000
(1790638298.190691) vcan0 300#FEE1000000000000
(1790638298.199897) vcan0 300#FF50000000000000
(1790638298.201663) vcan0 300#FEDF000000000000
(1790638298.210387) vcan0 100#0D9F000000000000
(1790638298.210481) vcan0 200#4300000000000000
(1790638298.210491) vcan0 300#FEDE000000000000
(1790638298.210634) vcan0 100#0D7C000000000000
(1790638298.210700) vcan0 300#FF55000000000000
(1790638298.220208) vcan0 300#FF5A000000000000
(1790638298.220465) vcan0 300#FEDD000000000000
(1790638298.230399) vcan0 100#0D7A000000000000
(1790638298.230470) vcan0 300#FF5F000000000000
(1790638298.231356) vcan0 100#0D9E000000000000
(1790638298.231414) vcan0 300#FEDB000000000000
(1790638298.240156) vcan0 200#4300000000000000
(1790638298.240174) vcan0 300#FF64000000000000
(1790638298.242219) vcan0 300#FEDA000000000000
(1790638298.251012) vcan0 100#0D9D000000000000
(1790638298.251068) vcan0 300#FED9000000000000
(1790638298.251067) vcan0 100#0D79000000000000
(1790638298.251083) vcan0 300#FF6A000000000000
(1790638298.260410) vcan0 300#FF6F000000000000
(1790638298.260428) vcan0 200#4300000000000000
(1790638298.260472) vcan0 300#FED8000000000000
(1790638298.270149) vcan0 100#0D77000000000000
(1790638298.270167) vcan0 300#FF74000000000000
(1790638298.272021) vcan0 100#0D9C000000000000
(1790638298.272081) vcan0 300#FED7000000000000
(1790638298.279601) vcan0 300#FF79000000000000
(1790638298.280504) vcan0 300#FED6000000000000
(1790638298.289940) vcan0 100#0D75000000000000
(1790638298.289963) vcan0 200#4300000000000000
(1790638298.289971) vcan0 300#FF7E000000000000
(1790638298.290832) vcan0 100#0D9B000000000000
(1790638298.290918) vcan0 300#FED6000000000000
(1790638298.299693) vcan0 300#FF84000000000000
(1790638298.301171) vcan0 300#FED5000000000000
(1790638298.310051) vcan0 100#0D74000000000000
(1790638298.310071) vcan0 300#FF89000000000000
(1790638298.311083) vcan0 100#0D9A000000000000
(1790638298.311157) vcan0 200#4300000000000000
(1790638298.311166) vcan0 300#FED5000000000000
(1790638298.319636) vcan0 300#FF8F000000000000
(1790638298.321557) vcan0 300#FED5000000000000
(1790638298.330244) vcan0 100#0D72000000000000
(1790638298.330291) vcan0 300#FF95000000000000
(1790638298.332196) vcan0 100#0D99000000000000
(1790638298.332360) vcan0 300#FED5000000000000
(1790638298.340038) vcan0 200#4300000000000000
(1790638298.340057) vcan0 300#FF9A000000000000
(1790638298.341887) vcan0 300#FED5000000000000
(1790638298.350444) vcan0 100#0D71000000000000
(1790638298.350490) vcan0 300#FFA0000000000000
(1790638298.352134) vcan0 100#0D98000000000000
(1790638298.352204) vcan0 300#FED5000000000000
(1790638298.359629) vcan0 300#FFA5000000000000
(1790638298.360568) vcan0 200#4300000000000000
(1790638298.360677) vcan0 300#FED5000000000000
(1790638298.370102) vcan0 100#0D6F000000000000
(1790638298.370129) vcan0 300#FFAB000000000000
(1790638298.371058) vcan0 100#0D97000000000000
(1790638298.371153) vcan0 300#FED5000000000000
(1790638298.380536) vcan0 300#FED6000000000000
(1790638298.380797) vcan0 300#FFB1000000000000
(1790638298.390732) vcan0 100#0D96000000000000
(1790638298.390906) vcan0 300#FED6000000000000
(1790638298.391237) vcan0 100#0D6D000000000000
(1790638298.391353) vcan0 200#4400000000000000
(1790638298.391370) vcan0 300#FFB7000000000000
(1790638298.400107) vcan0 300#FFBD000000000000
(1790638298.400759) vcan0 300#FED7000000000000
(1790638298.409659) vcan0 100#0D6B000000000000
(1790638298.409755) vcan0 300#FFC2000000000000
(1790638298.411152) vcan0 100#0D95000000000000
(1790638298.411225) vcan0 200#4300000000000000
(1790638298.411236) vcan0 300#FED8000000000000
(1790638298.411249) vcan0 400#0000000000000000
(1790638298.419908) vcan0 300#FFC8000000000000
(1790638298.420890) vcan0 300#FED9000000000000
(1790638298.430365) vcan0 100#0D6A000000000000
(1790638298.430430) vcan0 300#FFCE000000000000
(1790638298.430605) vcan0 100#0D94000000000000
(1790638298.430654) vcan0 300#FEDA000000000000
(1790638298.440538) vcan0 200#4400000000000000
(1790638298.440614) vcan0 300#FFD4000000000000
(1790638298.440819) vcan0 300#FEDB000000000000
(1790638298.449698) vcan0 100#0D68000000000000
(1790638298.449756) vcan0 300#FFDA000000000000
(1790638298.451023) vcan0 100#0D93000000000000
(1790638298.451113) vcan0 300#FEDC000000000000
(1790638298.459817) vcan0 300#FFE0000000000000
(1790638298.460764) vcan0 200#4300000000000000
(1790638298.460834) vcan0 300#FEDE000000000000
(1790638298.470576) vcan0 100#0D66000000000000
(1790638298.470643) vcan0 300#FFE6000000000000
(1790638298.472434) vcan0 100#0D92000000000000
(1790638298.472449) vcan0 300#FEDF000000000000
(1790638298.480062) vcan0 300#FFEC000000000000
(1790638298.481081) vcan0 300#FEE1000000000000
(1790638298.489820) vcan0 100#0D64000000000000
(1790638298.489886) vcan0 200#4400000000000000
(1790638298.489895) vcan0 300#FFF2000000000000
(1790638298.491393) vcan0 100#0D91000000000000
(1790638298.491444) vcan0 300#FEE3000000000000
(1790638298.500095) vcan0 300#FFF8000000000000
(1790638298.501007) vcan0 300#FEE4000000000000
(1790638298.510540) vcan0 100#0D90000000000000
(1790638298.510545) vcan0 100#0D62000000000000
(1790638298.510587) vcan0 300#FFFE000000000000
(1790638298.510596) vcan0 200#4300000000000000
(1790638298.510607) vcan0 300#FEE6000000000000
(1790638298.520714) vcan0 300#FEE8000000000000
(1790638298.520811) vcan0 300#0003000000000000
(1790638298.531672) vcan0 100#0D60000000000000
(1790638298.531736) vcan0 300#000A000000000000
(1790638298.531779) vcan0 100#0D8F000000000000
(1790638298.531801) vcan0 300#FEEB000000000000
(1790638298.540431) vcan0 200#4400000000000000
(1790638298.540447) vcan0 300#000F000000000000
(1790638298.540529) vcan0 300#FEED000000000000
(1790638298.550522) vcan0 100#0D5F000000000000
(1790638298.550578) vcan0 300#0015000000000000
(1790638298.550656) vcan0 100#0D8E000000000000
(1790638298.550701) vcan0 300#FEEF000000000000
(1790638298.562439) vcan0 300#001C000000000000
(1790638298.562463) vcan0 200#4300000000000000
(1790638298.562478) vcan0 300#FEF2000000000000
(1790638298.570410) vcan0 100#0D8C000000000000
(1790638298.570468) vcan0 300#FEF5000000000000
(1790638298.570490) vcan0 100#0D5D000000000000
(1790638298.570517) vcan0 300#0021000000000000
(1790638298.579779) vcan0 300#0027000000000000
(1790638298.581329) vcan0 300#FEF8000000000000
(1790638298.590353) vcan0 100#0D5B000000000000
(1790638298.590375) vcan0 200#4400000000000000
(1790638298.590385) vcan0 300#002D000000000000
(1790638298.590396) vcan0 400#0000000000000000
(1790638298.591298) vcan0 100#0D8B000000000000
(1790638298.591358) vcan0 300#FEFA000000000000
(1790638298.599947) vcan0 300#0033000000000000
(1790638298.601790) vcan0 300#FEFE000000000000
(1790638298.610519) vcan0 100#0D59000000000000
(1790638298.610521) vcan0 100#0D8A000000000000
(1790638298.610546) vcan0 200#4300000000000000
(1790638298.610547) vcan0 300#0039000000000000
(1790638298.610557) vcan0 300#FF00000000000000
(1790638298.621034) vcan0 300#FF04000000000000
(1790638298.621036) vcan0 300#003F000000000000
(1790638298.630353) vcan0 100#0D57000000000000
(1790638298.630383) vcan0 300#0044000000000000
(1790638298.631562) vcan0 100#0D89000000000000
(1790638298.631640) vcan0 300#FF07000000000000
(1790638298.640533) vcan0 200#4400000000000000
(1790638298.640601) vcan0 300#004A000000000000
(1790638298.640804) vcan0 300#FF0A000000000000
(1790638298.650427) vcan0 100#0D55000000000000
(1790638298.650460) vcan0 300#0050000000000000
(1790638298.650838) vcan0 100#0D87000000000000
(1790638298.650931) vcan0 300#FF0E000000000000
(1790638298.659805) vcan0 300#0056000000000000
(1790638298.660627) vcan0 200#4300000000000000
(1790638298.660786) vcan0 300#FF11000000000000
(1790638298.669855) vcan0 100#0D53000000000000
(1790638298.669883) vcan0 300#005B000000000000
(1790638298.671308) vcan0 100#0D86000000000000
(1790638298.671384) vcan0 300#FF15000000000000
(1790638298.680001) vcan0 300#0061000000000000
(1790638298.681582) vcan0 300#FF19000000000000
(1790638298.690438) vcan0 100#0D85000000000000
(1790638298.690516) vcan0 300#FF1C000000000000
(1790638298.690631) vcan0 100#0D51000000000000
(1790638298.690659) vcan0 200#4400000000000000
(1790638298.690674) vcan0 300#0067000000000000
(1790638298.700178) vcan0 300#006C000000000000
(1790638298.700932) vcan0 300#FF20000000000000
(1790638298.711179) vcan0 100#0D4F000000000000
(1790638298.711208) vcan0 300#0073000000000000
(1790638298.711373) vcan0 100#0D83000000000000
(1790638298.711532) vcan0 200#4300000000000000
(1790638298.711547) vcan0 300#FF25000000000000
(1790638298.720878) vcan0 300#FF29000000000000
(1790638298.721107) vcan0 300#0078000000000000
(1790638298.730400) vcan0 100#0D4D000000000000
(1790638298.730475) vcan0 300#007D000000000000
(1790638298.732469) vcan0 100#0D82000000000000
(1790638298.732614) vcan0 300#FF2D000000000000
(1790638298.740516) vcan0 200#4400000000000000
(1790638298.740539) vcan0 300#0083000000000000
(1790638298.740845) vcan0 300#FF31000000000000
(1790638298.751190) vcan0 100#0D4B000000000000
(1790638298.751210) vcan0 300#0088000000000000
(1790638298.752374) vcan0 100#0D80000000000000
(1790638298.752537) vcan0 300#FF36000000000000
(1790638298.760551) vcan0 300#008D000000000000
(1790638298.760873) vcan0 200#4300000000000000
(1790638298.760930) vcan0 300#FF3A000000000000
(1790638298.769885) vcan0 100#0D49000000000000
(1790638298.769947) vcan0 300#0092000000000000
(1790638298.771584) vcan0 100#0D7F000000000000
(1790638298.771646) vcan0 300#FF3F000000000000
(1790638298.780670) vcan0 300#FF43000000000000
(1790638298.780682) vcan0 300#0098000000000000
(1790638298.790277) vcan0 100#0D46000000000000
(1790638298.790341) vcan0 200#4400000000000000
(1790638298.790351) vcan0 300#009D000000000000
(1790638298.791831) vcan0 100#0D7E000000000000
(1790638298.791886) vcan0 300#FF48000000000000
(1790638298.799867) vcan0 300#00A2000000000000
(1790638298.801061) vcan0 300#FF4D000000000000
(1790638298.811413) vcan0 100#0D7C000000000000
(1790638298.811474) vcan0 200#4300000000000000
(1790638298.811484) vcan0 300#FF52000000000000
(1790638298.811577) vcan0 100#0D44000000000000
(1790638298.811593) vcan0 300#00A8000000000000
(1790638298.820588) vcan0 300#00AC000000000000
(1790638298.821450) vcan0 300#FF57000000000000
(1790638298.830339) vcan0 100#0D7B000000000000
(1790638298.830396) vcan0 300#FF5B000000000000
(1790638298.830458) vcan0 100#0D42000000000000
(1790638298.830472) vcan0 300#00B1000000000000
(1790638298.839726) vcan0 200#4400000000000000
(1790638298.839780) vcan0 300#00B5000000000000
(1790638298.840944) vcan0 300#FF60000000000000
(1790638298.851243) vcan0 100#0D40000000000000
(1790638298.851297) vcan0 300#00BB000000000000
(1790638298.852396) vcan0 100#0D79000000000000
(1790638298.852444) vcan0 300#FF66000000000000
(1790638298.860396) vcan0 200#4300000000000000
(1790638298.860470) vcan0 300#FF6A000000000000
(1790638298.860572) vcan0 300#00BF000000000000
(1790638298.870937) vcan0 100#0D78000000000000
(1790638298.870996) vcan0 300#FF70000000000000
(1790638298.871077) vcan0 100#0D3D000000000000
(1790638298.871093) vcan0 300#00C4000000000000
(1790638298.880031) vcan0 300#00C8000000000000
(1790638298.881484) vcan0 300#FF75000000000000
(1790638298.889686) vcan0 100#0D3B000000000000
(1790638298.889769) vcan0 200#4400000000000000
(1790638298.889781) vcan0 300#00CC000000000000
(1790638298.890605) vcan0 100#0D76000000000000
(1790638298.890679) vcan0 300#FF7A000000000000
(1790638298.899961) vcan0 300#00D1000000000000
(1790638298.900772) vcan0 300#FF80000000000000
(1790638298.909880) vcan0 100#0D39000000000000
(1790638298.909974) vcan0 300#00D5000000000000
(1790638298.910716) vcan0 100#0D74000000000000
(1790638298.910852) vcan0 200#4300000000000000
(1790638298.910866) vcan0 300#FF85000000000000
(1790638298.910884) vcan0 400#0000000000000000
(1790638298.910894) vcan0 500#A600000000000000
(1790638298.920013) vcan0 300#00D9000000000000
(1790638298.920886) vcan0 300#FF8B000000000000
(1790638298.931169) vcan0 100#0D73000000000000
(1790638298.931295) vcan0 300#FF90000000000000
(1790638298.931465) vcan0 100#0D37000000000000
(1790638298.931489) vcan0 300#00DE000000000000
(1790638298.940549) vcan0 300#FF96000000000000
(1790638298.940981) vcan0 200#4400000000000000
(1790638298.941287) vcan0 300#00E2000000000000
(1790638298.950935) vcan0 100#0D34000000000000
(1790638298.951001) vcan0 300#00E5000000000000
(1790638298.951191) vcan0 100#0D71000000000000
(1790638298.951247) vcan0 300#FF9C000000000000
(1790638298.959925) vcan0 300#00E9000000000000
(1790638298.960852) vcan0 200#4300000000000000
(1790638298.960924) vcan0 300#FFA1000000000000
(1790638298.969810) vcan0 100#0D32000000000000
(1790638298.969893) vcan0 300#00ED000000000000
(1790638298.970749) vcan0 100#0D6F000000000000
(1790638298.970831) vcan0 300#FFA7000000000000
(1790638298.980908) vcan0 300#FFAD000000000000
(1790638298.980931) vcan0 300#00F1000000000000
(1790638298.990688) vcan0 100#0D30000000000000
(1790638298.990792) vcan0 200#4400000000000000
(1790638298.990808) vcan0 300#00F4000000000000
(1790638298.991105) vcan0 100#0D6E000000000000
(1790638298.991191) vcan0 300#FFB3000000000000
(1790638299.000814) vcan0 300#FFB8000000000000
(1790638299.001114) vcan0 300#00F8000000000000
(1790638299.010842) vcan0 100#0D6C000000000000
(1790638299.010955) vcan0 200#4400000000000000
(1790638299.010972) vcan0 300#FFBE000000000000
(1790638299.011001) vcan0 100#0D2D000000000000
(1790638299.011028) vcan0 300#00FB000000000000
(1790638299.019778) vcan0 300#00FE000000000000
(1790638299.020537) vcan0 300#FFC4000000000000
(1790638299.030477) vcan0 100#0D2B000000000000
(1790638299.030595) vcan0 300#0101000000000000
(1790638299.031408) vcan0 100#0D6A000000000000
(1790638299.031514) vcan0 300#FFCA000000000000
(1790638299.040890) vcan0 300#FFD0000000000000
(1790638299.040938) vcan0 200#4400000000000000
(1790638299.040982) vcan0 300#0104000000000000
(1790638299.049961) vcan0 100#0D28000000000000
(1790638299.050068) vcan0 300#0107000000000000
(1790638299.050775) vcan0 100#0D69000000000000
(1790638299.050894) vcan0 300#FFD6000000000000
(1790638299.060484) vcan0 300#010A000000000000
(1790638299.061151) vcan0 200#4400000000000000
(1790638299.061320) vcan0 300#FFDC000000000000
(1790638299.070385) vcan0 100#0D26000000000000
(1790638299.070472) vcan0 300#010C000000000000
(1790638299.070760) vcan0 100#0D67000000000000
(1790638299.070833) vcan0 300#FFE1000000000000
(1790638299.079719) vcan0 300#010F000000000000
(1790638299.080548) vcan0 300#FFE7000000000000
(1790638299.090422) vcan0 100#0D65000000000000
(1790638299.090559) vcan0 300#FFED000000000000
(1790638299.090880) vcan0 100#0D23000000000000
(1790638299.090960) vcan0 200#4400000000000000
(1790638299.090972) vcan0 300#0112000000000000
(1790638299.090985) vcan0 400#0000000000000000
(1790638299.090992) vcan0 500#0B00000000000000
(1790638299.091000) vcan0 7DF#0201050000000000
(1790638299.101313) vcan0 300#FFF4000000000000
(1790638299.101549) vcan0 300#0114000000000000
(1790638299.110482) vcan0 100#0D21000000000000
(1790638299.110559) vcan0 300#0116000000000000
(1790638299.111917) vcan0 100#0D63000000000000
(1790638299.112012) vcan0 200#4400000000000000
(1790638299.112023) vcan0 300#FFFA000000000000
(1790638299.120252) vcan0 300#0118000000000000
(1790638299.120639) vcan0 300#FFFF000000000000
(1790638299.130682) vcan0 100#0D1E000000000000
(1790638299.130742) vcan0 300#011B000000000000
(1790638299.131513) vcan0 100#0D61000000000000
(1790638299.131562) vcan0 300#0005000000000000
(1790638299.140020) vcan0 200#4400000000000000
(1790638299.140072) vcan0 300#011C000000000000
(1790638299.141465) vcan0 300#000B000000000000
(1790638299.150982) vcan0 100#0D5F000000000000
(1790638299.151042) vcan0 300#0011000000000000
(1790638299.151163) vcan0 100#0D1C000000000000
(1790638299.151177) vcan0 300#011E000000000000
(1790638299.160256) vcan0 300#0120000000000000
(1790638299.161122) vcan0 200#4400000000000000
(1790638299.161189) vcan0 300#0017000000000000
(1790638299.170971) vcan0 100#0D5E000000000000
(1790638299.171035) vcan0 300#001C000000000000
(1790638299.171118) vcan0 100#0D19000000000000
(1790638299.171134) vcan0 300#0122000000000000
(1790638299.181025) vcan0 300#0123000000000000
(1790638299.181176) vcan0 300#0023000000000000
(1790638299.190837) vcan0 100#0D5C000000000000
(1790638299.190902) vcan0 300#0028000000000000
(1790638299.190972) vcan0 100#0D17000000000000
(1790638299.190987) vcan0 200#4400000000000000
(1790638299.190995) vcan0 300#0124000000000000
(1790638299.200554) vcan0 300#0126000000000000
(1790638299.201735) vcan0 300#002F000000000000
(1790638299.210545) vcan0 100#0D5A000000000000
(1790638299.210621) vcan0 200#4400000000000000
(1790638299.210631) vcan0 300#0034000000000000
(1790638299.210747) vcan0 100#0D14000000000000
(1790638299.210762) vcan0 300#0127000000000000
(1790638299.220219) vcan0 300#0128000000000000
(1790638299.220533) vcan0 300#003A000000000000
(1790638299.230112) vcan0 100#0D11000000000000
(1790638299.230170) vcan0 300#0129000000000000
(1790638299.231865) vcan0 100#0D58000000000000
(1790638299.231920) vcan0 300#0041000000000000
(1790638299.240618) vcan0 300#0046000000000000
(1790638299.240761) vcan0 200#4400000000000000
(1790638299.240777) vcan0 300#0129000000000000
(1790638299.250574) vcan0 100#0D56000000000000
(1790638299.250649) vcan0 300#004B000000000000
(1790638299.250751) vcan0 100#0D0F000000000000
(1790638299.250769) vcan0 300#012A000000000000
(1790638299.260477) vcan0 300#012B000000000000
(1790638299.262051) vcan0 200#4400000000000000
(1790638299.262123) vcan0 300#0052000000000000
(1790638299.270123) vcan0 100#0D0C000000000000
(1790638299.270214) vcan0 300#012B000000000000
(1790638299.271331) vcan0 100#0D54000000000000
(1790638299.271419) vcan0 300#0057000000000000
(1790638299.280845) vcan0 300#012B000000000000
(1790638299.281118) vcan0 300#005D000000000000
(1790638299.290383) vcan0 100#0D09000000000000
(1790638299.290496) vcan0 200#4400000000000000
(1790638299.290512) vcan0 300#012B000000000000
(1790638299.291799) vcan0 100#0D52000000000000
(1790638299.291931) vcan0 300#0063000000000000
(1790638299.299854) vcan0 300#012B000000000000
(1790638299.300851) vcan0 300#0068000000000000
(1790638299.310684) vcan0 100#0D50000000000000
(1790638299.310787) vcan0 200#4400000000000000
(1790638299.310801) vcan0 300#006E000000000000
(1790638299.310877) vcan0 100#0D06000000000000
(1790638299.310901) vcan0 300#012B000000000000
(1790638299.319980) vcan0 300#012B000000000000
(1790638299.320935) vcan0 300#0073000000000000
(1790638299.330983) vcan0 100#0D4E000000000000
(1790638299.331107) vcan0 300#0079000000000000
(1790638299.331169) vcan0 100#0D04000000000000
(1790638299.331190) vcan0 300#012B000000000000
(1790638299.339948) vcan0 200#4400000000000000
(1790638299.340024) vcan0 300#012B000000000000
(1790638299.341196) vcan0 300#007F000000000000
(1790638299.350799) vcan0 100#0D01000000000000
(1790638299.350873) vcan0 300#012A000000000000
(1790638299.350873) vcan0 100#0D4B000000000000
(1790638299.350892) vcan0 300#0084000000000000
(1790638299.360747) vcan0 200#4400000000000000
(1790638299.360798) vcan0 300#0089000000000000
(1790638299.360925) vcan0 300#0129000000000000
(1790638299.370662) vcan0 100#0D49000000000000
(1790638299.370746) vcan0 300#008E000000000000
(1790638299.370929) vcan0 100#0CFE000000000000
(1790638299.370990) vcan0 300#0128000000000000
(1790638299.380078) vcan0 300#0128000000000000
(1790638299.381952) vcan0 300#0094000000000000
(1790638299.390737) vcan0 100#0D47000000000000
(1790638299.390738) vcan0 100#0CFB000000000000
(1790638299.390755) vcan0 200#4400000000000000
(1790638299.390756) vcan0 300#0099000000000000
(1790638299.390765) vcan0 300#0127000000000000
(1790638299.399716) vcan0 300#0126000000000000
(1790638299.400899) vcan0 300#009E000000000000
(1790638299.409598) vcan0 100#0CF9000000000000
(1790638299.409654) vcan0 300#0124000000000000
(1790638299.410853) vcan0 100#0D45000000000000
(1790638299.410960) vcan0 200#4400000000000000
(1790638299.411002) vcan0 300#00A3000000000000
(1790638299.411013) vcan0 400#0400000000000000
(1790638299.420837) vcan0 300#00A8000000000000
(1790638299.420895) vcan0 300#0123000000000000
(1790638299.430085) vcan0 100#0CF6000000000000
(1790638299.430141) vcan0 300#0121000000000000
(1790638299.431697) vcan0 100#0D43000000000000
(1790638299.431755) vcan0 300#00AD000000000000
(1790638299.440379) vcan0 200#4400000000000000
(1790638299.440380) vcan0 300#00B2000000000000
(1790638299.440450) vcan0 300#0120000000000000
(1790638299.450896) vcan0 100#0CF3000000000000
(1790638299.450953) vcan0 300#011E000000000000
(1790638299.451934) vcan0 100#0D40000000000000
(1790638299.452108) vcan0 300#00B7000000000000
(1790638299.460358) vcan0 300#011C000000000000
(1790638299.460439) vcan0 200#4400000000000000
(1790638299.460454) vcan0 300#00BB000000000000
(1790638299.471050) vcan0 100#0D3E000000000000
(1790638299.471111) vcan0 300#00C0000000000000
(1790638299.471189) vcan0 100#0CF0000000000000
(1790638299.471248) vcan0 300#011A000000000000
(1790638299.480148) vcan0 300#0118000000000000
(1790638299.480781) vcan0 300#00C5000000000000
(1790638299.489774) vcan0 100#0CED000000000000
(1790638299.489832) vcan0 200#4400000000000000
(1790638299.489841) vcan0 300#0116000000000000
(1790638299.491925) vcan0 100#0D3C000000000000
(1790638299.491977) vcan0 300#00CA000000000000
(1790638299.500540) vcan0 300#0114000000000000
(1790638299.500743) vcan0 300#00CD000000000000
(1790638299.510172) vcan0 100#0CEA000000000000
(1790638299.510221) vcan0 300#0111000000000000
(1790638299.511045) vcan0 100#0D3A000000000000
(1790638299.511103) vcan0 200#4400000000000000
(1790638299.511111) vcan0 300#00D2000000000000
(1790638299.519725) vcan0 300#010F000000000000
(1790638299.520885) vcan0 300#00D6000000000000
(1790638299.530612) vcan0 100#0CE7000000000000
(1790638299.530631) vcan0 300#010C000000000000
(1790638299.530793) vcan0 100#0D38000000000000
(1790638299.530845) vcan0 300#00DA000000000000
(1790638299.541102) vcan0 300#00DE000000000000
(1790638299.541298) vcan0 200#4400000000000000
(1790638299.541312) vcan0 300#0109000000000000
(1790638299.550886) vcan0 100#0CE4000000000000
(1790638299.550890) vcan0 100#0D35000000000000
(1790638299.550932) vcan0 300#00E2000000000000
(1790638299.550944) vcan0 300#0106000000000000
(1790638299.559899) vcan0 300#0104000000000000
(1790638299.561121) vcan0 200#4400000000000000
(1790638299.561167) vcan0 300#00E6000000000000
(1790638299.570277) vcan0 100#0CE1000000000000
(1790638299.570333) vcan0 300#0101000000000000
(1790638299.570950) vcan0 100#0D33000000000000
(1790638299.571004) vcan0 300#00EA000000000000
(1790638299.580335) vcan0 300#00FD000000000000
(1790638299.581474) vcan0 300#00EE000000000000
(1790638299.590254) vcan0 100#0CDE000000000000
(1790638299.590308) vcan0 200#4400000000000000
(1790638299.590317) vcan0 300#00FA000000000000
(1790638299.590327) vcan0 400#0000000000000000
(1790638299.591880) vcan0 100#0D30000000000000
(1790638299.591934) vcan0 300#00F2000000000000
(1790638299.601206) vcan0 300#00F7000000000000
(1790638299.601216) vcan0 300#00F5000000000000
(1790638299.611033) vcan0 100#0D2E000000000000
(1790638299.611098) vcan0 200#4400000000000000
(1790638299.611106) vcan0 300#00F8000000000000
(1790638299.611129) vcan0 100#0CDB000000000000
(1790638299.611143) vcan0 300#00F3000000000000
(1790638299.620023) vcan0 300#00F0000000000000
(1790638299.620495) vcan0 300#00FB000000000000
(1790638299.630098) vcan0 100#0CD8000000000000
(1790638299.630115) vcan0 300#00EC000000000000
(1790638299.631164) vcan0 100#0D2C000000000000
(1790638299.631178) vcan0 300#00FF000000000000
(1790638299.640933) vcan0 300#0102000000000000
(1790638299.641138) vcan0 200#4400000000000000
(1790638299.641153) vcan0 300#00E8000000000000
(1790638299.650378) vcan0 100#0CD5000000000000
(1790638299.650425) vcan0 300#00E5000000000000
(1790638299.652122) vcan0 100#0D29000000000000
(1790638299.652176) vcan0 300#0105000000000000
(1790638299.660157) vcan0 300#00E1000000000000
(1790638299.661146) vcan0 200#4400000000000000
(1790638299.661197) vcan0 300#0108000000000000
(1790638299.670229) vcan0 100#0CD2000000000000
(1790638299.670296) vcan0 300#00DD000000000000
(1790638299.671251) vcan0 100#0D27000000000000
(1790638299.671304) vcan0 300#010B000000000000
(1790638299.680401) vcan0 300#00D9000000000000
(1790638299.680549) vcan0 300#010D000000000000
(1790638299.690256) vcan0 100#0CCF000000000000
(1790638299.690316) vcan0 200#4400000000000000
(1790638299.690324) vcan0 300#00D5000000000000
(1790638299.690711) vcan0 100#0D24000000000000
(1790638299.690765) vcan0 300#0110000000000000
(1790638299.700467) vcan0 300#00D0000000000000
(1790638299.701296) vcan0 300#0112000000000000
(1790638299.710364) vcan0 100#0D22000000000000
(1790638299.710420) vcan0 200#4400000000000000
(1790638299.710429) vcan0 300#0114000000000000
(1790638299.710896) vcan0 100#0CCC000000000000
(1790638299.710950) vcan0 300#00CC000000000000
(1790638299.720403) vcan0 300#00C7000000000000
(1790638299.720598) vcan0 300#0117000000000000
(1790638299.730340) vcan0 100#0CC8000000000000
(1790638299.730395) vcan0 300#00C3000000000000
(1790638299.731432) vcan0 100#0D1F000000000000
(1790638299.731449) vcan0 300#0119000000000000
(1790638299.740498) vcan0 300#011B000000000000
(1790638299.740506) vcan0 200#4400000000000000
(1790638299.740520) vcan0 300#00BE000000000000
(1790638299.751085) vcan0 100#0CC5000000000000
(1790638299.751136) vcan0 300#00B9000000000000
(1790638299.751262) vcan0 100#0D1D000000000000
(1790638299.751311) vcan0 300#011D000000000000
(1790638299.760346) vcan0 200#4400000000000000
(1790638299.760401) vcan0 300#011F000000000000
(1790638299.760422) vcan0 300#00B5000000000000
(1790638299.771034) vcan0 100#0CC2000000000000
(1790638299.771083) vcan0 300#00B0000000000000
(1790638299.771254) vcan0 100#0D1A000000000000
(1790638299.771311) vcan0 300#0120000000000000
(1790638299.780343) vcan0 300#0122000000000000
(1790638299.780354) vcan0 300#00AB000000000000
(1790638299.791107) vcan0 100#0CBF000000000000
(1790638299.791166) vcan0 200#4400000000000000
(1790638299.791175) vcan0 300#00A6000000000000
(1790638299.792033) vcan0 100#0D17000000000000
(1790638299.792160) vcan0 300#0123000000000000
(1790638299.799586) vcan0 300#00A2000000000000
(1790638299.800648) vcan0 300#0125000000000000
(1790638299.811074) vcan0 100#0D15000000000000
(1790638299.811075) vcan0 100#0CBC000000000000
(1790638299.811121) vcan0 200#4400000000000000
(1790638299.811129) vcan0 300#0126000000000000
(1790638299.811131) vcan0 300#009C000000000000
(1790638299.820317) vcan0 300#0097000000000000
(1790638299.820380) vcan0 300#0127000000000000
(1790638299.830380) vcan0 100#0D12000000000000
(1790638299.830414) vcan0 100#0CB8000000000000
(1790638299.830428) vcan0 300#0092000000000000
(1790638299.830435) vcan0 300#0128000000000000
(1790638299.840695) vcan0 200#4400000000000000
(1790638299.840696) vcan0 300#0129000000000000
(1790638299.840753) vcan0 300#008C000000000000
(1790638299.850416) vcan0 100#0CB5000000000000
(1790638299.850485) vcan0 300#0087000000000000
(1790638299.852099) vcan0 100#0D10000000000000
(1790638299.852314) vcan0 300#012A000000000000
(1790638299.861116) vcan0 200#4400000000000000
(1790638299.861149) vcan0 300#0081000000000000
(1790638299.861185) vcan0 300#012A000000000000
(1790638299.869818) vcan0 100#0CB2000000000000
(1790638299.869890) vcan0 300#007D000000000000
(1790638299.871605) vcan0 100#0D0D000000000000
(1790638299.871710) vcan0 300#012B000000000000
(1790638299.880510) vcan0 300#0077000000000000
(1790638299.881969) vcan0 300#012B000000000000
(1790638299.890515) vcan0 100#0D0A000000000000
(1790638299.890607) vcan0 300#012B000000000000
(1790638299.890898) vcan0 100#0CAE000000000000
(1790638299.890977) vcan0 200#4400000000000000
(1790638299.890990) vcan0 300#0071000000000000
(1790638299.900478) vcan0 300#006C000000000000
(1790638299.902050) vcan0 300#012B000000000000
(1790638299.910109) vcan0 100#0CAB000000000000
(1790638299.910272) vcan0 300#0066000000000000
(1790638299.911409) vcan0 100#0D08000000000000
(1790638299.911536) vcan0 200#4400000000000000
(1790638299.911551) vcan0 300#012B000000000000
(1790638299.911569) vcan0 400#0000000000000000
(1790638299.911581) vcan0 500#A700000000000000
(1790638299.911592) vcan0 7DF#02010D0000000000
(1790638299.919803) vcan0 300#0061000000000000
(1790638299.920536) vcan0 300#012B000000000000
(1790638299.929832) vcan0 100#0CA8000000000000
(1790638299.929942) vcan0 300#005B000000000000
(1790638299.931286) vcan0 100#0D05000000000000
(1790638299.931417) vcan0 300#012B000000000000
(1790638299.940361) vcan0 200#4400000000000000
(1790638299.940452) vcan0 300#0055000000000000
(1790638299.940709) vcan0 300#012B000000000000
(1790638299.950794) vcan0 100#0D02000000000000
(1790638299.950892) vcan0 300#012A000000000000
(1790638299.951031) vcan0 100#0CA4000000000000
(1790638299.951053) vcan0 300#004F000000000000
(1790638299.959834) vcan0 300#004A000000000000
(1790638299.960943) vcan0 200#4400000000000000
(1790638299.961023) vcan0 300#012A000000000000
(1790638299.969925) vcan0 100#0CA1000000000000
(1790638299.970000) vcan0 300#0044000000000000
(1790638299.971825) vcan0 100#0CFF000000000000
(1790638299.971934) vcan0 300#0129000000000000
(1790638299.980983) vcan0 300#0128000000000000
(1790638299.981197) vcan0 300#003D000000000000
(1790638299.989955) vcan0 100#0C9E000000000000
(1790638299.990031) vcan0 200#4400000000000000
(1790638299.990041) vcan0 300#0038000000000000
(1790638299.990725) vcan0 100#0CFD000000000000
(1790638299.990788) vcan0 300#0127000000000000
(1790638300.001839) vcan0 300#0031000000000000
(1790638300.001841) vcan0 300#0126000000000000
(1790638300.010557) vcan0 100#0CFA000000000000
(1790638300.010637) vcan0 200#4400000000000000
(1790638300.010647) vcan0 300#0125000000000000
(1790638300.010906) vcan0 100#0C9A000000000000
(1790638300.010964) vcan0 300#002C000000000000
(1790638300.020039) vcan0 300#0026000000000000
(1790638300.020844) vcan0 300#0124000000000000
(1790638300.030942) vcan0 100#0C97000000000000
(1790638300.031032) vcan0 300#0020000000000000
(1790638300.031323) vcan0 100#0CF7000000000000
(1790638300.031396) vcan0 300#0122000000000000
(1790638300.040521) vcan0 300#0121000000000000
(1790638300.040832) vcan0 200#4400000000000000
(1790638300.040844) vcan0 300#001A000000000000
(1790638300.050974) vcan0 100#0C93000000000000
(1790638300.051047) vcan0 300#0014000000000000
(1790638300.051298) vcan0 100#0CF4000000000000
(1790638300.051311) vcan0 300#011F000000000000
(1790638300.060433) vcan0 200#4400000000000000
(1790638300.060547) vcan0 300#011E000000000000
(1790638300.060844) vcan0 300#000E000000000000
(1790638300.069889) vcan0 100#0C90000000000000
(1790638300.069963) vcan0 300#0009000000000000
(1790638300.071928) vcan0 100#0CF1000000000000
(1790638300.072509) vcan0 300#011C000000000000
(1790638300.080023) vcan0 300#0003000000000000
(1790638300.080936) vcan0 300#011A000000000000
(1790638300.090979) vcan0 100#0C8C000000000000
(1790638300.091079) vcan0 200#4400000000000000
(1790638300.091094) vcan0 300#FFFD000000000000
(1790638300.091109) vcan0 400#0100000000000000
(1790638300.091119) vcan0 500#0C00000000000000
(1790638300.091208) vcan0 100#0CEE000000000000
(1790638300.091232) vcan0 300#0118000000000000
(1790638300.101451) vcan0 300#0115000000000000
(1790638300.101677) vcan0 300#FFF7000000000000
(1790638300.110869) vcan0 100#0CEB000000000000
(1790638300.110985) vcan0 200#4400000000000000
(1790638300.110997) vcan0 300#0113000000000000
(1790638300.111277) vcan0 100#0C88000000000000
(1790638300.111368) vcan0 300#FFF1000000000000
(1790638300.120725) vcan0 300#0111000000000000
(1790638300.121064) vcan0 300#FFEB000000000000
(1790638300.130499) vcan0 100#0CE8000000000000
(1790638300.130576) vcan0 300#010E000000000000
(1790638300.130714) vcan0 100#0C85000000000000
(1790638300.130729) vcan0 300#FFE5000000000000
(1790638300.139884) vcan0 200#4400000000000000
(1790638300.139967) vcan0 300#FFE0000000000000
(1790638300.140740) vcan0 300#010C000000000000
(1790638300.150758) vcan0 100#0CE5000000000000
(1790638300.150891) vcan0 300#0109000000000000
(1790638300.151061) vcan0 100#0C81000000000000
(1790638300.151078) vcan0 300#FFD9000000000000
(1790638300.160104) vcan0 300#FFD4000000000000
(1790638300.161662) vcan0 200#4400000000000000
(1790638300.161735) vcan0 300#0106000000000000
(1790638300.170726) vcan0 100#0CE2000000000000
(1790638300.170832) vcan0 300#0103000000000000
(1790638300.171120) vcan0 100#0C7E000000000000
(1790638300.171196) vcan0 300#FFCD000000000000
(1790638300.180655) vcan0 300#0100000000000000
(1790638300.180840) vcan0 300#FFC7000000000000
(1790638300.190648) vcan0 100#0CDF000000000000
(1790638300.190713) vcan0 300#00FD000000000000
(1790638300.190845) vcan0 100#0C7A000000000000
(1790638300.190858) vcan0 200#4400000000000000
(1790638300.190867) vcan0 300#FFC2000000000000
(1790638300.200742) vcan0 300#00FA000000000000
(1790638300.201079) vcan0 300#FFBC000000000000
(1790638300.210637) vcan0 100#0CDC000000000000
(1790638300.210713) vcan0 200#4400000000000000
(1790638300.210724) vcan0 300#00F6000000000000
(1790638300.210966) vcan0 100#0C76000000000000
(1790638300.210977) vcan0 300#FFB6000000000000
(1790638300.220693) vcan0 300#00F3000000000000
(1790638300.220893) vcan0 300#FFB0000000000000
(1790638300.230767) vcan0 100#0CD9000000000000
(1790638300.230845) vcan0 300#00EF000000000000
(1790638300.230933) vcan0 100#0C73000000000000
(1790638300.230953) vcan0 300#FFAA000000000000
(1790638300.240759) vcan0 300#00EB000000000000
(1790638300.240934) vcan0 200#4400000000000000
(1790638300.240952) vcan0 300#FFA5000000000000
(1790638300.250865) vcan0 100#0C6F000000000000
(1790638300.250950) vcan0 300#FF9F000000000000
(1790638300.251308) vcan0 100#0CD6000000000000
(1790638300.251393) vcan0 300#00E7000000000000
(1790638300.261096) vcan0 300#FF99000000000000
(1790638300.261419) vcan0 200#4400000000000000
(1790638300.261449) vcan0 300#00E4000000000000
(1790638300.270233) vcan0 100#0C6C000000000000
(1790638300.270352) vcan0 300#FF94000000000000
(1790638300.271205) vcan0 100#0CD3000000000000
(1790638300.271341) vcan0 300#00E0000000000000
(1790638300.280507) vcan0 300#00DC000000000000
(1790638300.280800) vcan0 300#FF8E000000000000
(1790638300.290865) vcan0 100#0CD0000000000000
(1790638300.290956) vcan0 300#00D8000000000000
(1790638300.291035) vcan0 100#0C68000000000000
(1790638300.291058) vcan0 200#4500000000000000
(1790638300.291071) vcan0 300#FF88000000000000
(1790638300.300779) vcan0 300#00D4000000000000
(1790638300.301020) vcan0 300#FF83000000000000
(1790638300.310742) vcan0 100#0CCD000000000000
(1790638300.310826) vcan0 200#4400000000000000
(1790638300.310838) vcan0 300#00CF000000000000
(1790638300.310948) vcan0 100#0C64000000000000
(1790638300.310971) vcan0 300#FF7E000000000000
(1790638300.320628) vcan0 300#00CB000000000000
(1790638300.320845) vcan0 300#FF78000000000000
(1790638300.330267) vcan0 100#0C60000000000000
(1790638300.330345) vcan0 300#FF73000000000000
(1790638300.331092) vcan0 100#0CCA000000000000
(1790638300.331159) vcan0 300#00C6000000000000
(1790638300.340513) vcan0 300#00C2000000000000
(1790638300.340820) vcan0 200#4500000000000000
(1790638300.340833) vcan0 300#FF6E000000000000
(1790638300.350534) vcan0 100#0CC7000000000000
(1790638300.350628) vcan0 300#00BD000000000000
(1790638300.350876) vcan0 100#0C5C000000000000
(1790638300.350942) vcan0 300#FF68000000000000
(1790638300.359738) vcan0 300#FF64000000000000
(1790638300.360436) vcan0 200#4400000000000000
(1790638300.360514) vcan0 300#00B9000000000000
(1790638300.370660) vcan0 100#0CC3000000000000
(1790638300.370757) vcan0 300#00B4000000000000
(1790638300.371064) vcan0 100#0C59000000000000
(1790638300.371131) vcan0 300#FF5E000000000000
(1790638300.380947) vcan0 300#00AF000000000000
(1790638300.381083) vcan0 300#FF59000000000000
(1790638300.390761) vcan0 100#0C55000000000000
(1790638300.390844) vcan0 200#4500000000000000
(1790638300.390856) vcan0 300#FF54000000000000
(1790638300.391143) vcan0 100#0CC0000000000000
(1790638300.391210) vcan0 300#00AA000000000000
(1790638300.400721) vcan0 300#00A5000000000000
(1790638300.401127) vcan0 300#FF4F000000000000
(1790638300.410815) vcan0 100#0CBD000000000000
(1790638300.410890) vcan0 200#4400000000000000
(1790638300.410901) vcan0 300#00A0000000000000
(1790638300.410912) vcan0 400#0100000000000000
(1790638300.411041) vcan0 100#0C51000000000000
(1790638300.411060) vcan0 300#FF4B000000000000
(1790638300.420480) vcan0 300#FF46000000000000
(1790638300.421825) vcan0 300#009B000000000000
(1790638300.430865) vcan0 100#0C4D000000000000
(1790638300.430955) vcan0 300#FF41000000000000
(1790638300.431181) vcan0 100#0CBA000000000000
(1790638300.431252) vcan0 300#0096000000000000
(1790638300.441022) vcan0 300#0091000000000000
(1790638300.441150) vcan0 200#4500000000000000
(1790638300.441170) vcan0 300#FF3D000000000000
(1790638300.450503) vcan0 100#0C49000000000000
(1790638300.450568) vcan0 300#FF38000000000000
(1790638300.452616) vcan0 100#0CB6000000000000
(1790638300.452683) vcan0 300#008A000000000000
(1790638300.461158) vcan0 200#4400000000000000
(1790638300.461211) vcan0 300#0086000000000000
(1790638300.461403) vcan0 300#FF33000000000000
(1790638300.470218) vcan0 100#0C46000000000000
(1790638300.470299) vcan0 300#FF30000000000000
(1790638300.471893) vcan0 100#0CB3000000000000
(1790638300.471970) vcan0 300#0080000000000000
(1790638300.480851) vcan0 300#007B000000000000
(1790638300.481096) vcan0 300#FF2B000000000000
(1790638300.490682) vcan0 100#0CB0000000000000
(1790638300.490839) vcan0 300#0076000000000000
(1790638300.491230) vcan0 100#0C42000000000000
(1790638300.491358) vcan0 200#4500000000000000
(1790638300.491378) vcan0 300#FF27000000000000
(1790638300.500817) vcan0 300#FF23000000000000
(1790638300.501240) vcan0 300#0070000000000000
(1790638300.510729) vcan0 100#0CAC000000000000
(1790638300.510788) vcan0 200#4400000000000000
(1790638300.510796) vcan0 300#006B000000000000
(1790638300.511150) vcan0 100#0C3E000000000000
(1790638300.511214) vcan0 300#FF1F000000000000
(1790638300.520573) vcan0 300#0065000000000000
(1790638300.520779) vcan0 300#FF1B000000000000
(1790638300.530176) vcan0 100#0C3A000000000000
(1790638300.530194) vcan0 300#FF17000000000000
(1790638300.531629) vcan0 100#0CA9000000000000
(1790638300.531683) vcan0 300#005F000000000000
(1790638300.539715) vcan0 200#4500000000000000
(1790638300.539735) vcan0 300#FF14000000000000
(1790638300.541502) vcan0 300#0059000000000000
(1790638300.550458) vcan0 100#0CA6000000000000
(1790638300.550540) vcan0 300#0054000000000000
(1790638300.550748) vcan0 100#0C36000000000000
(1790638300.550779) vcan0 300#FF10000000000000
(1790638300.559614) vcan0 300#FF0D000000000000
(1790638300.561927) vcan0 200#4400000000000000
(1790638300.562014) vcan0 300#004D000000000000
(1790638300.570500) vcan0 100#0C32000000000000
(1790638300.570528) vcan0 300#FF09000000000000
(1790638300.570912) vcan0 100#0CA2000000000000
(1790638300.571016) vcan0 300#0048000000000000
(1790638300.580374) vcan0 300#FF06000000000000
(1790638300.581310) vcan0 300#0042000000000000
(1790638300.590478) vcan0 100#0C2E000000000000
(1790638300.590539) vcan0 200#4500000000000000
(1790638300.590556) vcan0 300#FF02000000000000
(1790638300.590573) vcan0 400#0200000000000000
(1790638300.591763) vcan0 100#0C9F000000000000
(1790638300.591852) vcan0 300#003C000000000000
(1790638300.600578) vcan0 300#FEFF000000000000
(1790638300.601352) vcan0 300#0036000000000000
(1790638300.610254) vcan0 100#0C2A000000000000
(1790638300.610282) vcan0 300#FEFC000000000000
(1790638300.611807) vcan0 100#0C9B000000000000
(1790638300.611889) vcan0 200#4400000000000000
(1790638300.611901) vcan0 300#0030000000000000
(1790638300.620813) vcan0 300#002B000000000000
(1790638300.621187) vcan0 300#FEF9000000000000
(1790638300.631180) vcan0 100#0C26000000000000
(1790638300.631182) vcan0 100#0C98000000000000
(1790638300.631209) vcan0 300#0025000000000000
(1790638300.631257) vcan0 300#FEF6000000000000
(1790638300.640827) vcan0 300#001F000000000000
(1790638300.641164) vcan0 200#4500000000000000
(1790638300.641188) vcan0 300#FEF4000000000000
(1790638300.650412) vcan0 100#0C22000000000000
(1790638300.650480) vcan0 300#FEF1000000000000
(1790638300.652422) vcan0 100#0C94000000000000
(1790638300.652505) vcan0 300#0018000000000000
(1790638300.661051) vcan0 200#4400000000000000
(1790638300.661111) vcan0 300#0013000000000000
(1790638300.661261) vcan0 300#FEEE000000000000
(1790638300.669980) vcan0 100#0C1E000000000000
(1790638300.670047) vcan0 300#FEEC000000000000
(1790638300.671510) vcan0 100#0C91000000000000
(1790638300.671581) vcan0 300#000D000000000000
(1790638300.680449) vcan0 300#FEEA000000000000
(1790638300.680451) vcan0 300#0007000000000000
(1790638300.690105) vcan0 100#0C1A000000000000
(1790638300.690126) vcan0 200#4500000000000000
(1790638300.690134) vcan0 300#FEE8000000000000
(1790638300.691839) vcan0 100#0C8D000000000000
(1790638300.691889) vcan0 300#0000000000000000
(1790638300.700405) vcan0 300#FFFC000000000000
(1790638300.700506) vcan0 300#FEE6000000000000
(1790638300.711261) vcan0 100#0C15000000000000
(1790638300.711259) vcan0 100#0C8A000000000000
(1790638300.711283) vcan0 200#4400000000000000
(1790638300.711293) vcan0 300#FFF6000000000000
(1790638300.711382) vcan0 300#FEE4000000000000
(1790638300.720408) vcan0 300#FEE2000000000000
(1790638300.721724) vcan0 300#FFF0000000000000
(1790638300.730856) vcan0 100#0C86000000000000
(1790638300.730922) vcan0 300#FFEA000000000000
(1790638300.730992) vcan0 100#0C11000000000000
(1790638300.731011) vcan0 300#FEE0000000000000
(1790638300.740809) vcan0 300#FFE4000000000000
(1790638300.741103) vcan0 200#4500000000000000
(1790638300.741125) vcan0 300#FEDE000000000000
(1790638300.749746) vcan0 100#0C0D000000000000
(1790638300.749807) vcan0 300#FEDD000000000000
(1790638300.751257) vcan0 100#0C83000000000000
(1790638300.751340) vcan0 300#FFDE000000000000
(1790638300.760692) vcan0 200#4400000000000000
(1790638300.760755) vcan0 300#FFD8000000000000
(1790638300.760789) vcan0 300#FEDC000000000000
(1790638300.770124) vcan0 100#0C09000000000000
(1790638300.770173) vcan0 300#FEDB000000000000
(1790638300.771000) vcan0 100#0C7F000000000000
(1790638300.771053) vcan0 300#FFD2000000000000
(1790638300.780948) vcan0 300#FFCC000000000000
(1790638300.781220) vcan0 300#FED9000000000000
(1790638300.790369) vcan0 100#0C05000000000000
(1790638300.790425) vcan0 200#4500000000000000
(1790638300.790439) vcan0 300#FED8000000000000
(1790638300.792074) vcan0 100#0C7B000000000000
(1790638300.792334) vcan0 300#FFC6000000000000
(1790638300.799773) vcan0 300#FED8000000000000
(1790638300.801255) vcan0 300#FFC0000000000000
(1790638300.811126) vcan0 100#0C78000000000000
(1790638300.811190) vcan0 200#4400000000000000
(1790638300.811199) vcan0 300#FFBB000000000000
(1790638300.811299) vcan0 100#0C01000000000000
(1790638300.811316) vcan0 300#FED7000000000000
(1790638300.819740) vcan0 300#FED6000000000000
(1790638300.821193) vcan0 300#FFB5000000000000
(1790638300.830464) vcan0 100#0BFD000000000000
(1790638300.830540) vcan0 300#FED5000000000000
(1790638300.832433) vcan0 100#0C74000000000000
(1790638300.832462) vcan0 300#FFAE000000000000
(1790638300.841040) vcan0 300#FFA9000000000000
(1790638300.841068) vcan0 200#4500000000000000
(1790638300.841102) vcan0 300#FED5000000000000
(1790638300.849666) vcan0 100#0BF9000000000000
(1790638300.849743) vcan0 300#FED5000000000000
(1790638300.851219) vcan0 100#0C71000000000000
(1790638300.851294) vcan0 300#FFA3000000000000
(1790638300.859696) vcan0 300#FED5000000000000
(1790638300.860593) vcan0 200#4400000000000000
(1790638300.860648) vcan0 300#FF9E000000000000
(1790638300.869944) vcan0 100#0BF4000000000000
(1790638300.870007) vcan0 300#FED5000000000000
(1790638300.870868) vcan0 100#0C6D000000000000
(1790638300.870928) vcan0 300#FF98000000000000
(1790638300.881660) vcan0 300#FF92000000000000
(1790638300.881778) vcan0 300#FED5000000000000
(1790638300.890426) vcan0 100#0C69000000000000
(1790638300.890529) vcan0 300#FF8D000000000000
(1790638300.890695) vcan0 100#0BF0000000000000
(1790638300.890786) vcan0 200#4500000000000000
(1790638300.890799) vcan0 300#FED5000000000000
(1790638300.900481) vcan0 300#FF88000000000000
(1790638300.900905) vcan0 300#FED5000000000000
(1790638300.910870) vcan0 100#0BEC000000000000
(1790638300.910972) vcan0 300#FED5000000000000
(1790638300.911289) vcan0 100#0C65000000000000
(1790638300.911384) vcan0 200#4500000000000000
(1790638300.911398) vcan0 300#FF82000000000000
(1790638300.911417) vcan0 400#0000000000000000
(1790638300.911428) vcan0 500#A800000000000000
(1790638300.920450) vcan0 300#FED6000000000000
(1790638300.921853) vcan0 300#FF7C000000000000
(1790638300.931133) vcan0 100#0BE7000000000000
(1790638300.931221) vcan0 100#0C62000000000000
(1790638300.931228) vcan0 300#FED7000000000000
(1790638300.931243) vcan0 300#FF77000000000000
(1790638300.940201) vcan0 200#4500000000000000
(1790638300.940338) vcan0 300#FED7000000000000
(1790638300.940960) vcan0 300#FF72000000000000
(1790638300.951368) vcan0 100#0BE3000000000000
(1790638300.951464) vcan0 300#FED8000000000000
(1790638300.952034) vcan0 100#0C5E000000000000
(1790638300.952122) vcan0 300#FF6C000000000000
(1790638300.960386) vcan0 200#4500000000000000
(1790638300.960497) vcan0 300#FF68000000000000
(1790638300.960507) vcan0 300#FED9000000000000
(1790638300.969734) vcan0 100#0BDF000000000000
(1790638300.969759) vcan0 300#FEDA000000000000
(1790638300.971289) vcan0 100#0C5A000000000000
(1790638300.971361) vcan0 300#FF62000000000000
(1790638300.981053) vcan0 300#FF5D000000000000
(1790638300.981108) vcan0 300#FEDC000000000000
(1790638300.991163) vcan0 100#0C56000000000000
(1790638300.991268) vcan0 300#FF58000000000000
(1790638300.991535) vcan0 100#0BDA000000000000
(1790638300.991610) vcan0 200#4500000000000000
(1790638300.991619) vcan0 300#FEDD000000000000
(1790638300.999645) vcan0 300#FEDE000000000000
(1790638301.001189) vcan0 300#FF53000000000000
(1790638301.009667) vcan0 100#0BD6000000000000
(1790638301.009754) vcan0 300#FEE0000000000000
(1790638301.011212) vcan0 100#0C53000000000000
(1790638301.011287) vcan0 200#4500000000000000
(1790638301.011296) vcan0 300#FF4E000000000000
(1790638301.019702) vcan0 300#FEE2000000000000
(1790638301.021238) vcan0 300#FF4A000000000000
(1790638301.030986) vcan0 100#0C4F000000000000
(1790638301.031051) vcan0 300#FF45000000000000
(1790638301.031111) vcan0 100#0BD2000000000000
(1790638301.031131) vcan0 300#FEE4000000000000
(1790638301.039812) vcan0 200#4500000000000000
(1790638301.039895) vcan0 300#FEE6000000000000
(1790638301.041390) vcan0 300#FF40000000000000
(1790638301.050101) vcan0 100#0BCD000000000000
(1790638301.050173) vcan0 300#FEE8000000000000
(1790638301.051272) vcan0 100#0C4B000000000000
(1790638301.051341) vcan0 300#FF3C000000000000
(1790638301.060586) vcan0 200#4500000000000000
(1790638301.060649) vcan0 300#FF37000000000000
(1790638301.060894) vcan0 300#FEEA000000000000
(1790638301.069790) vcan0 100#0BC9000000000000
(1790638301.069869) vcan0 300#FEEC000000000000
(1790638301.071331) vcan0 100#0C47000000000000
(1790638301.071426) vcan0 300#FF33000000000000
(1790638301.079843) vcan0 300#FEEE000000000000
(1790638301.080784) vcan0 300#FF2F000000000000
(1790638301.089737) vcan0 100#0BC5000000000000
(1790638301.089810) vcan0 200#4500000000000000
(1790638301.089820) vcan0 300#FEF1000000000000
(1790638301.089832) vcan0 400#0100000000000000
(1790638301.089840) vcan0 500#0D00000000000000
(1790638301.089849) vcan0 7DF#02010D0000000000
(1790638301.091492) vcan0 100#0C43000000000000
(1790638301.091552) vcan0 300#FF2A000000000000
(1790638301.100980) vcan0 300#FF26000000000000
(1790638301.101106) vcan0 300#FEF4000000000000
(1790638301.109737) vcan0 100#0BC0000000000000
(1790638301.109809) vcan0 300#FEF6000000000000
(1790638301.111450) vcan0 100#0C3F000000000000
(1790638301.111526) vcan0 200#4500000000000000
(1790638301.111536) vcan0 300#FF22000000000000
(1790638301.120437) vcan0 300#FF1E000000000000
(1790638301.120464) vcan0 300#FEF9000000000000
(1790638301.131038) vcan0 100#0C3B000000000000
(1790638301.131101) vcan0 300#FF1A000000000000
(1790638301.131232) vcan0 100#0BBB000000000000
(1790638301.131247) vcan0 300#FEFC000000000000
(1790638301.140887) vcan0 300#FF16000000000000
(1790638301.141107) vcan0 200#4500000000000000
(1790638301.141123) vcan0 300#FEFF000000000000
(1790638301.149665) vcan0 100#0BB7000000000000
(1790638301.149735) vcan0 300#FF02000000000000
(1790638301.150812) vcan0 100#0C37000000000000
(1790638301.150878) vcan0 300#FF13000000000000
(1790638301.160809) vcan0 200#4500000000000000
(1790638301.160912) vcan0 300#FF0F000000000000
(1790638301.160972) vcan0 300#FF06000000000000
(1790638301.169659) vcan0 100#0BB3000000000000
(1790638301.169776) vcan0 300#FF09000000000000
(1790638301.170474) vcan0 100#0C34000000000000
(1790638301.170629) vcan0 300#FF0C000000000000
(1790638301.181259) vcan0 300#FF08000000000000
(1790638301.181278) vcan0 300#FF0D000000000000
(1790638301.190131) vcan0 100#0BAE000000000000
(1790638301.190238) vcan0 200#4500000000000000
(1790638301.190253) vcan0 300#FF10000000000000
(1790638301.191868) vcan0 100#0C2F000000000000
(1790638301.191969) vcan0 300#FF05000000000000
(1790638301.200852) vcan0 300#FF02000000000000
(1790638301.200997) vcan0 300#FF14000000000000
(1790638301.209617) vcan0 100#0BAA000000000000
(1790638301.209732) vcan0 300#FF17000000000000
(1790638301.211245) vcan0 100#0C2B000000000000
(1790638301.211418) vcan0 200#4500000000000000
(1790638301.211434) vcan0 300#FEFE000000000000
(1790638301.221104) vcan0 300#FEFB000000000000
(1790638301.221375) vcan0 300#FF1B000000000000
(1790638301.230403) vcan0 100#0C28000000000000
(1790638301.230510) vcan0 100#0BA5000000000000
(1790638301.230514) vcan0 300#FEF9000000000000
(1790638301.230537) vcan0 300#FF1F000000000000
(1790638301.239783) vcan0 200#4500000000000000
(1790638301.239889) vcan0 300#FF23000000000000
(1790638301.241167) vcan0 300#FEF6000000000000
(1790638301.250225) vcan0 100#0BA1000000000000
(1790638301.250315) vcan0 300#FF27000000000000
(1790638301.252113) vcan0 100#0C23000000000000
(1790638301.252245) vcan0 300#FEF3000000000000
(1790638301.260979) vcan0 200#4500000000000000
(1790638301.261036) vcan0 300#FF2B000000000000
(1790638301.261067) vcan0 300#FEF1000000000000
(1790638301.270391) vcan0 100#0B9C000000000000
(1790638301.270496) vcan0 300#FF2F000000000000
(1790638301.272430) vcan0 100#0C1F000000000000
(1790638301.272531) vcan0 300#FEEE000000000000
(1790638301.281086) vcan0 300#FF34000000000000
(1790638301.281263) vcan0 300#FEEC000000000000
(1790638301.289735) vcan0 100#0B98000000000000
(1790638301.289835) vcan0 200#4500000000000000
(1790638301.289848) vcan0 300#FF38000000000000
(1790638301.291207) vcan0 100#0C1B000000000000
(1790638301.291294) vcan0 300#FEE9000000000000
(1790638301.299835) vcan0 300#FF3C000000000000
(1790638301.300900) vcan0 300#FEE7000000000000
(1790638301.309925) vcan0 100#0B93000000000000
(1790638301.310001) vcan0 300#FF41000000000000
(1790638301.311369) vcan0 100#0C17000000000000
(1790638301.311458) vcan0 200#4500000000000000
(1790638301.311470) vcan0 300#FEE5000000000000
(1790638301.319821) vcan0 300#FF46000000000000
(1790638301.321697) vcan0 300#FEE3000000000000
(1790638301.330891) vcan0 100#0C13000000000000
(1790638301.330927) vcan0 100#0B8E000000000000
(1790638301.330955) vcan0 300#FF4B000000000000
(1790638301.330963) vcan0 300#FEE2000000000000
(1790638301.339754) vcan0 200#4500000000000000
(1790638301.339842) vcan0 300#FF4F000000000000
(1790638301.340697) vcan0 300#FEE0000000000000
(1790638301.349652) vcan0 100#0B8A000000000000
(1790638301.349737) vcan0 300#FF54000000000000
(1790638301.351615) vcan0 100#0C0F000000000000
(1790638301.351699) vcan0 300#FEDE000000000000
(1790638301.359666) vcan0 300#FF59000000000000
(1790638301.361022) vcan0 200#4500000000000000
(1790638301.361088) vcan0 300#FEDD000000000000
(1790638301.371069) vcan0 100#0C0B000000000000
(1790638301.371168) vcan0 300#FEDB000000000000
(1790638301.371350) vcan0 100#0B85000000000000
(1790638301.371361) vcan0 300#FF5F000000000000
(1790638301.379693) vcan0 300#FF63000000000000
(1790638301.380656) vcan0 300#FEDA000000000000
(1790638301.391179) vcan0 100#0C07000000000000
(1790638301.391249) vcan0 300#FED9000000000000
(1790638301.391377) vcan0 100#0B80000000000000
(1790638301.391391) vcan0 200#4500000000000000
(1790638301.391400) vcan0 300#FF69000000000000
(1790638301.399812) vcan0 300#FF6D000000000000
(1790638301.400765) vcan0 300#FED8000000000000
(1790638301.409980) vcan0 100#0B7C000000000000
(1790638301.410058) vcan0 300#FF73000000000000
(1790638301.411541) vcan0 100#0C02000000000000
(1790638301.411624) vcan0 200#4500000000000000
(1790638301.411633) vcan0 300#FED7000000000000
(1790638301.411643) vcan0 400#0200000000000000
(1790638301.419899) vcan0 300#FF78000000000000
(1790638301.421885) vcan0 300#FED6000000000000
(1790638301.430696) vcan0 100#0BFE000000000000
(1790638301.430704) vcan0 100#0B77000000000000
(1790638301.430767) vcan0 300#FF7E000000000000
(1790638301.430775) vcan0 300#FED6000000000000
(1790638301.439977) vcan0 200#4500000000000000
(1790638301.440047) vcan0 300#FF83000000000000
(1790638301.442295) vcan0 300#FED5000000000000
(1790638301.450679) vcan0 100#0B72000000000000
(1790638301.450744) vcan0 300#FF89000000000000
(1790638301.451029) vcan0 100#0BFA000000000000
(1790638301.451087) vcan0 300#FED5000000000000
(1790638301.460636) vcan0 300#FF8E000000000000
(1790638301.462532) vcan0 200#4500000000000000
(1790638301.462589) vcan0 300#FED5000000000000
(1790638301.471250) vcan0 100#0BF6000000000000
(1790638301.471339) vcan0 300#FED5000000000000
(1790638301.471653) vcan0 100#0B6D000000000000
(1790638301.471668) vcan0 300#FF94000000000000
(1790638301.479861) vcan0 300#FF99000000000000
(1790638301.481573) vcan0 300#FED5000000000000
(1790638301.489653) vcan0 100#0B69000000000000
(1790638301.489673) vcan0 200#4500000000000000
(1790638301.489681) vcan0 300#FF9F000000000000
(1790638301.490913) vcan0 100#0BF2000000000000
(1790638301.490976) vcan0 300#FED5000000000000
(1790638301.500451) vcan0 300#FED5000000000000
(1790638301.500675) vcan0 300#FFA5000000000000
(1790638301.511037) vcan0 100#0BED000000000000
(1790638301.511112) vcan0 200#4500000000000000
(1790638301.511120) vcan0 300#FED5000000000000
(1790638301.511373) vcan0 100#0B64000000000000
(1790638301.511391) vcan0 300#FFAB000000000000
(1790638301.519787) vcan0 300#FFB0000000000000
(1790638301.521165) vcan0 300#FED6000000000000
(1790638301.529770) vcan0 100#0B60000000000000
(1790638301.529789) vcan0 300#FFB6000000000000
(1790638301.530995) vcan0 100#0BE9000000000000
(1790638301.531048) vcan0 300#FED6000000000000
(1790638301.541206) vcan0 200#4500000000000000
(1790638301.541264) vcan0 300#FFBC000000000000
(1790638301.541540) vcan0 300#FED7000000000000
(1790638301.549707) vcan0 100#0B5B000000000000
(1790638301.549732) vcan0 300#FFC1000000000000
(1790638301.550998) vcan0 100#0BE5000000000000
(1790638301.551066) vcan0 300#FED8000000000000
(1790638301.560015) vcan0 300#FFC7000000000000
(1790638301.560991) vcan0 200#4500000000000000
(1790638301.561068) vcan0 300#FED9000000000000
(1790638301.570871) vcan0 100#0BE0000000000000
(1790638301.570959) vcan0 300#FEDA000000000000
(1790638301.571351) vcan0 100#0B56000000000000
(1790638301.571374) vcan0 300#FFCE000000000000
(1790638301.579603) vcan0 300#FFD3000000000000
(1790638301.581872) vcan0 300#FEDB000000000000
(1790638301.590681) vcan0 100#0BDC000000000000
(1790638301.590784) vcan0 300#FEDC000000000000
(1790638301.591238) vcan0 100#0B51000000000000
(1790638301.591264) vcan0 200#4500000000000000
(1790638301.591277) vcan0 300#FFDA000000000000
(1790638301.591294) vcan0 400#0000000000000000
(1790638301.600436) vcan0 300#FFDF000000000000
(1790638301.601242) vcan0 300#FEDD000000000000
(1790638301.609900) vcan0 100#0B4C000000000000
(1790638301.609942) vcan0 300#FFE5000000000000
(1790638301.611232) vcan0 100#0BD8000000000000
(1790638301.611350) vcan0 200#4500000000000000
(1790638301.611367) vcan0 300#FEDF000000000000
(1790638301.619723) vcan0 300#FFEB000000000000
(1790638301.621197) vcan0 300#FEE1000000000000
(1790638301.630021) vcan0 100#0B47000000000000
(1790638301.630050) vcan0 300#FFF1000000000000
(1790638301.631358) vcan0 100#0BD3000000000000
(1790638301.631446) vcan0 300#FEE2000000000000
(1790638301.640065) vcan0 200#4500000000000000
(1790638301.640087) vcan0 300#FFF7000000000000
(1790638301.641640) vcan0 300#FEE4000000000000
(1790638301.650106) vcan0 100#0B43000000000000
(1790638301.650129) vcan0 300#FFFD000000000000
(1790638301.650352) vcan0 100#0BCF000000000000
(1790638301.650424) vcan0 300#FEE6000000000000
(1790638301.659951) vcan0 300#0002000000000000
(1790638301.660880) vcan0 200#4500000000000000
(1790638301.660972) vcan0 300#FEE8000000000000
(1790638301.669848) vcan0 100#0B3E000000000000
(1790638301.669871) vcan0 300#0008000000000000
(1790638301.671452) vcan0 100#0BCB000000000000
(1790638301.671547) vcan0 300#FEEA000000000000
(1790638301.680443) vcan0 300#000E000000000000
(1790638301.681636) vcan0 300#FEED000000000000
(1790638301.690029) vcan0 100#0B39000000000000
(1790638301.690051) vcan0 200#4500000000000000
(1790638301.690059) vcan0 300#0014000000000000
(1790638301.692090) vcan0 100#0BC6000000000000
(1790638301.692344) vcan0 300#FEEF000000000000
(1790638301.700475) vcan0 300#001A000000000000
(1790638301.701650) vcan0 300#FEF2000000000000
(1790638301.711833) vcan0 100#0BC2000000000000
(1790638301.711920) vcan0 200#4500000000000000
(1790638301.711934) vcan0 300#FEF4000000000000
(1790638301.712445) vcan0 100#0B33000000000000
(1790638301.712480) vcan0 300#0021000000000000
(1790638301.719841) vcan0 300#0026000000000000
(1790638301.721310) vcan0 300#FEF7000000000000
(1790638301.730383) vcan0 100#0B2F000000000000
(1790638301.730479) vcan0 300#002C000000000000
(1790638301.731215) vcan0 100#0BBD000000000000
(1790638301.731290) vcan0 300#FEFA000000000000
(1790638301.740082) vcan0 200#4500000000000000
(1790638301.740165) vcan0 300#0032000000000000
(1790638301.740702) vcan0 300#FEFD000000000000
(1790638301.750100) vcan0 100#0B2A000000000000
(1790638301.750184) vcan0 300#0038000000000000
(1790638301.751586) vcan0 100#0BB9000000000000
(1790638301.751702) vcan0 300#FF00000000000000
(1790638301.760075) vcan0 300#003E000000000000
(1790638301.761386) vcan0 200#4500000000000000
(1790638301.761449) vcan0 300#FF03000000000000
(1790638301.770439) vcan0 100#0BB5000000000000
(1790638301.770496) vcan0 300#FF06000000000000
(1790638301.770461) vcan0 100#0B25000000000000
(1790638301.770549) vcan0 300#0044000000000000
(1790638301.780425) vcan0 300#FF09000000000000
(1790638301.780737) vcan0 300#004A000000000000
(1790638301.790251) vcan0 100#0B20000000000000
(1790638301.790312) vcan0 200#4500000000000000
(1790638301.790324) vcan0 300#004F000000000000
(1790638301.790606) vcan0 100#0BB0000000000000
(1790638301.790626) vcan0 300#FF0D000000000000
(1790638301.800032) vcan0 300#0055000000000000
(1790638301.800389) vcan0 300#FF10000000000000
(1790638301.809960) vcan0 100#0B1B000000000000
(1790638301.810054) vcan0 300#005A000000000000
(1790638301.812218) vcan0 100#0BAB000000000000
(1790638301.812299) vcan0 200#4500000000000000
(1790638301.812312) vcan0 300#FF15000000000000
(1790638301.820923) vcan0 300#0060000000000000
(1790638301.821306) vcan0 300#FF18000000000000
(1790638301.830346) vcan0 100#0B16000000000000
(1790638301.830450) vcan0 300#0066000000000000
(1790638301.831326) vcan0 100#0BA7000000000000
(1790638301.831349) vcan0 300#FF1C000000000000
(1790638301.840484) vcan0 300#FF20000000000000
(1790638301.840699) vcan0 200#4500000000000000
(1790638301.840794) vcan0 300#006C000000000000
(1790638301.849917) vcan0 100#0B11000000000000
(1790638301.850008) vcan0 300#0071000000000000
(1790638301.851493) vcan0 100#0BA2000000000000
(1790638301.851528) vcan0 300#FF24000000000000
(1790638301.860285) vcan0 300#0077000000000000
(1790638301.862225) vcan0 200#4500000000000000
(1790638301.862252) vcan0 300#FF28000000000000
(1790638301.870369) vcan0 100#0B0C000000000000
(1790638301.870441) vcan0 300#007C000000000000
(1790638301.871930) vcan0 100#0B9E000000000000
(1790638301.871957) vcan0 300#FF2D000000000000
(1790638301.880412) vcan0 300#FF30000000000000
(1790638301.880591) vcan0 300#0082000000000000
(1790638301.889829) vcan0 100#0B07000000000000
(1790638301.889887) vcan0 200#4500000000000000
(1790638301.889896) vcan0 300#0087000000000000
(1790638301.892461) vcan0 100#0B99000000000000
(1790638301.892478) vcan0 300#FF35000000000000
(1790638301.900658) vcan0 300#008D000000000000
(1790638301.900974) vcan0 300#FF39000000000000
(1790638301.909964) vcan0 100#0B02000000000000
(1790638301.910069) vcan0 300#0091000000000000
(1790638301.911241) vcan0 100#0B95000000000000
(1790638301.911260) vcan0 200#4500000000000000
(1790638301.911269) vcan0 300#FF3E000000000000
(1790638301.911282) vcan0 400#0000000000000000
(1790638301.911291) vcan0 500#A900000000000000
(1790638301.911299) vcan0 7DF#02010D0000000000
(1790638301.919749) vcan0 300#0097000000000000
(1790638301.921257) vcan0 300#FF43000000000000
(1790638301.929826) vcan0 100#0AFD000000000000
(1790638301.929927) vcan0 300#009C000000000000
(1790638301.930689) vcan0 100#0B90000000000000
(1790638301.930739) vcan0 300#FF47000000000000
(1790638301.939907) vcan0 200#4500000000000000
(1790638301.939995) vcan0 300#00A1000000000000
(1790638301.940894) vcan0 300#FF4C000000000000
(1790638301.949624) vcan0 100#0AF8000000000000
(1790638301.949706) vcan0 300#00A6000000000000
(1790638301.951521) vcan0 100#0B8B000000000000
(1790638301.951552) vcan0 300#FF51000000000000
(1790638301.960428) vcan0 300#00AB000000000000
(1790638301.960935) vcan0 200#4500000000000000
(1790638301.960981) vcan0 300#FF56000000000000
(1790638301.970445) vcan0 100#0B87000000000000
(1790638301.970509) vcan0 300#FF5A000000000000
(1790638301.970606) vcan0 100#0AF3000000000000
(1790638301.970696) vcan0 300#00B0000000000000
(1790638301.979603) vcan0 300#00B4000000000000
(1790638301.980573) vcan0 300#FF5F000000000000
(1790638301.989655) vcan0 100#0AEE000000000000
(1790638301.989766) vcan0 200#4500000000000000
(1790638301.989782) vcan0 300#00B9000000000000
(1790638301.990430) vcan0 100#0B82000000000000
(1790638301.990460) vcan0 300#FF64000000000000
(1790638302.000115) vcan0 300#00BE000000000000
(1790638302.001007) vcan0 300#FF6A000000000000
(1790638302.009633) vcan0 100#0AE9000000000000
(1790638302.009751) vcan0 300#00C2000000000000
(1790638302.011559) vcan0 100#0B7D000000000000
(1790638302.011594) vcan0 200#4500000000000000
(1790638302.011610) vcan0 300#FF6F000000000000
(1790638302.019687) vcan0 300#00C7000000000000
(1790638302.020664) vcan0 300#FF74000000000000
(1790638302.029947) vcan0 100#0AE4000000000000
(1790638302.030060) vcan0 300#00CC000000000000
(1790638302.031058) vcan0 100#0B79000000000000
(1790638302.031089) vcan0 300#FF7A000000000000
(1790638302.040598) vcan0 200#4500000000000000
(1790638302.040710) vcan0 300#00D0000000000000
(1790638302.041145) vcan0 300#FF7F000000000000
(1790638302.051037) vcan0 100#0ADF000000000000
(1790638302.051149) vcan0 300#00D5000000000000
(1790638302.051635) vcan0 100#0B74000000000000
(1790638302.051675) vcan0 300#FF85000000000000
(1790638302.059704) vcan0 300#00D8000000000000
(1790638302.060734) vcan0 200#4500000000000000
(1790638302.060777) vcan0 300#FF8A000000000000
(1790638302.069846) vcan0 100#0ADA000000000000
(1790638302.069956) vcan0 300#00DC000000000000
(1790638302.070986) vcan0 100#0B6F000000000000
(1790638302.071012) vcan0 300#FF8F000000000000
(1790638302.079644) vcan0 300#00E0000000000000
(1790638302.080677) vcan0 300#FF95000000000000
(1790638302.090712) vcan0 100#0B6B000000000000
(1790638302.090786) vcan0 300#FF9B000000000000
(1790638302.090861) vcan0 100#0AD4000000000000
(1790638302.090966) vcan0 200#4500000000000000
(1790638302.090985) vcan0 300#00E5000000000000
(1790638302.091006) vcan0 400#0000000000000000
(1790638302.091018) vcan0 500#0E00000000000000
(1790638302.100515) vcan0 300#FFA0000000000000
(1790638302.100915) vcan0 300#00E9000000000000
(1790638302.109943) vcan0 100#0AD0000000000000
(1790638302.110034) vcan0 300#00EC000000000000
(1790638302.110389) vcan0 100#0B66000000000000
(1790638302.110417) vcan0 200#4500000000000000
(1790638302.110434) vcan0 300#FFA6000000000000
(1790638302.120405) vcan0 300#FFAB000000000000
(1790638302.120533) vcan0 300#00F0000000000000
(1790638302.130304) vcan0 100#0ACA000000000000
(1790638302.130383) vcan0 300#00F3000000000000
(1790638302.131711) vcan0 100#0B61000000000000
(1790638302.131739) vcan0 300#FFB2000000000000
(1790638302.140019) vcan0 200#4500000000000000
(1790638302.140113) vcan0 300#00F7000000000000
(1790638302.140559) vcan0 300#FFB7000000000000
(1790638302.150427) vcan0 100#0AC5000000000000
(1790638302.150529) vcan0 300#00FA000000000000
(1790638302.150626) vcan0 100#0B5C000000000000
(1790638302.150642) vcan0 300#FFBD000000000000
(1790638302.167738) vcan0 300#0100000000000000
(1790638302.168842) vcan0 200#4500000000000000
(1790638302.168990) vcan0 300#FFC7000000000000
(1790638302.170773) vcan0 100#0AC0000000000000
(1790638302.170965) vcan0 300#0101000000000000
(1790638302.171138) vcan0 100#0B58000000000000
(1790638302.171163) vcan0 300#FFC9000000000000
(1790638302.186387) vcan0 300#0105000000000000
(1790638302.187590) vcan0 300#FFD3000000000000
(1790638302.190861) vcan0 100#0ABB000000000000
(1790638302.191009) vcan0 200#4500000000000000
(1790638302.191030) vcan0 300#0107000000000000
(1790638302.192126) vcan0 100#0B53000000000000
(1790638302.192770) vcan0 300#FFD5000000000000
(1790638302.201896) vcan0 300#FFDB000000000000
(1790638302.202127) vcan0 300#010A000000000000
(1790638302.209705) vcan0 100#0AB6000000000000
(1790638302.209789) vcan0 300#010C000000000000
(1790638302.212258) vcan0 100#0B4E000000000000
(1790638302.212338) vcan0 200#4500000000000000
(1790638302.212360) vcan0 300#FFE1000000000000
(1790638302.220898) vcan0 300#010F000000000000
(1790638302.221241) vcan0 300#FFE7000000000000
(1790638302.231893) vcan0 100#0B49000000000000
(1790638302.232004) vcan0 300#FFED000000000000
(1790638302.232441) vcan0 100#0AB0000000000000
(1790638302.232469) vcan0 300#0112000000000000
(1790638302.239635) vcan0 200#4500000000000000
(1790638302.239897) vcan0 300#0113000000000000
(1790638302.240765) vcan0 300#FFF2000000000000
(1790638302.250569) vcan0 100#0AAB000000000000
(1790638302.250672) vcan0 300#0116000000000000
(1790638302.251694) vcan0 100#0B44000000000000
(1790638302.251780) vcan0 300#FFF9000000000000
(1790638302.265907) vcan0 300#0119000000000000
(1790638302.267063) vcan0 200#4500000000000000
(1790638302.267192) vcan0 300#0001000000000000
(1790638302.270144) vcan0 100#0AA6000000000000
(1790638302.270279) vcan0 300#011A000000000000
(1790638302.270755) vcan0 100#0B40000000000000
(1790638302.270891) vcan0 300#0003000000000000
(1790638302.280784) vcan0 300#011C000000000000
(1790638302.280845) vcan0 300#000A000000000000
(1790638302.290761) vcan0 100#0AA0000000000000
(1790638302.290908) vcan0 200#4500000000000000
(1790638302.290931) vcan0 300#011E000000000000
(1790638302.291547) vcan0 100#0B3B000000000000
(1790638302.291685) vcan0 300#0010000000000000
(1790638302.301007) vcan0 300#0016000000000000
(1790638302.301461) vcan0 300#0120000000000000
(1790638302.310617) vcan0 100#0A9B000000000000
(1790638302.310749) vcan0 300#0121000000000000
(1790638302.311530) vcan0 100#0B36000000000000
(1790638302.311661) vcan0 200#4500000000000000
(1790638302.311679) vcan0 300#001C000000000000
(1790638302.321527) vcan0 300#0022000000000000
(1790638302.321804) vcan0 300#0123000000000000
(1790638302.330738) vcan0 100#0B31000000000000
(1790638302.330841) vcan0 300#0027000000000000
(1790638302.331154) vcan0 100#0A96000000000000
(1790638302.331250) vcan0 300#0124000000000000
(1790638302.349454) vcan0 200#4500000000000000
(1790638302.349623) vcan0 300#0126000000000000
(1790638302.349902) vcan0 300#0033000000000000
(1790638302.350914) vcan0 100#0A91000000000000
(1790638302.351466) vcan0 300#0127000000000000
(1790638302.351800) vcan0 100#0B2C000000000000
(1790638302.352102) vcan0 300#0034000000000000
(1790638302.360019) vcan0 300#0128000000000000
(1790638302.360586) vcan0 200#4500000000000000
(1790638302.360755) vcan0 300#0039000000000000
(1790638302.371883) vcan0 100#0A8B000000000000
(1790638302.372012) vcan0 300#0129000000000000
(1790638302.372683) vcan0 100#0B27000000000000
(1790638302.372800) vcan0 300#0040000000000000
(1790638302.379868) vcan0 300#0129000000000000
(1790638302.380334) vcan0 300#0045000000000000
(1790638302.390748) vcan0 100#0A86000000000000
(1790638302.390829) vcan0 200#4500000000000000
(1790638302.390842) vcan0 300#012A000000000000
(1790638302.391280) vcan0 100#0B22000000000000
(1790638302.391360) vcan0 300#004B000000000000
(1790638302.401442) vcan0 300#012B000000000000
(1790638302.402074) vcan0 300#0051000000000000
(1790638302.410110) vcan0 100#0A81000000000000
(1790638302.410228) vcan0 300#012B000000000000
(1790638302.410420) vcan0 100#0B1D000000000000
(1790638302.410448) vcan0 200#4500000000000000
(1790638302.410464) vcan0 300#0056000000000000
(1790638302.410483) vcan0 400#0100000000000000
(1790638302.422735) vcan0 300#012B000000000000
(1790638302.423128) vcan0 300#005D000000000000
(1790638302.430708) vcan0 100#0A7B000000000000
(1790638302.430868) vcan0 300#012B000000000000
(1790638302.431442) vcan0 100#0B18000000000000
(1790638302.431620) vcan0 300#0062000000000000
(1790638302.440412) vcan0 200#4500000000000000
(1790638302.440549) vcan0 300#012B000000000000
(1790638302.440827) vcan0 300#0067000000000000
(1790638302.451785) vcan0 100#0A76000000000000
(1790638302.451890) vcan0 300#012B000000000000
(1790638302.452156) vcan0 100#0B13000000000000
(1790638302.452175) vcan0 300#006E000000000000
(1790638302.460181) vcan0 300#012B000000000000
(1790638302.460768) vcan0 200#4500000000000000
(1790638302.460845) vcan0 300#0072000000000000
(1790638302.470735) vcan0 100#0A71000000000000
(1790638302.470844) vcan0 300#012B000000000000
(1790638302.471374) vcan0 100#0B0E000000000000
(1790638302.471479) vcan0 300#0078000000000000
(1790638302.480180) vcan0 300#012B000000000000
(1790638302.480781) vcan0 300#007D000000000000
(1790638302.489884) vcan0 100#0A6B000000000000
(1790638302.489964) vcan0 200#4500000000000000
(1790638302.489975) vcan0 300#012A000000000000
(1790638302.492819) vcan0 100#0B09000000000000
(1790638302.492895) vcan0 300#0084000000000000
(1790638302.501231) vcan0 300#0129000000000000
(1790638302.501284) vcan0 300#0089000000000000
(1790638302.509879) vcan0 100#0A66000000000000
(1790638302.509901) vcan0 300#0129000000000000
(1790638302.510622) vcan0 100#0B04000000000000
(1790638302.510652) vcan0 200#4500000000000000
(1790638302.510663) vcan0 300#008D000000000000
(1790638302.521058) vcan0 300#0128000000000000
(1790638302.521429) vcan0 300#0093000000000000
