(1790640798.968352) vcan0 100#0DA6000000000000
(1790640798.968427) vcan0 300#00E2000000000000
(1790640798.985193) vcan0 100#0DA6000000000000
(1790640798.985292) vcan0 300#00DB000000000000
(1790640798.998333) vcan0 100#0DA7000000000000
(1790640798.998911) vcan0 200#4200000000000000
(1790640798.999562) vcan0 300#00D5000000000000
(1790640799.008419) vcan0 100#0DA7000000000000
(1790640799.009196) vcan0 300#00D1000000000000
(1790640799.011525) vcan0 100#0DA7000000000000
(1790640799.011748) vcan0 300#00D0000000000000
(1790640799.013241) vcan0 100#0DA7000000000000
(1790640799.013280) vcan0 300#00CF000000000000
(1790640799.014559) vcan0 300#00CE000000000000
(1790640799.016709) vcan0 300#00CE000000000000
(1790640799.018424) vcan0 300#00CD000000000000
(1790640799.019759) vcan0 300#00CC000000000000
(1790640799.021185) vcan0 100#0DA7000000000000
(1790640799.021269) vcan0 300#00CB000000000000
(1790640799.024953) vcan0 300#00CA000000000000
(1790640799.026312) vcan0 300#00C9000000000000
(1790640799.027596) vcan0 300#00C9000000000000
(1790640799.030829) vcan0 300#00C7000000000000
(1790640799.032920) vcan0 300#00C6000000000000
(1790640799.036011) vcan0 300#00C5000000000000
(1790640799.037599) vcan0 300#00C4000000000000
(1790640799.039300) vcan0 300#00C3000000000000
(1790640799.040824) vcan0 300#00C3000000000000
(1790640799.041997) vcan0 100#0DA8000000000000
(1790640799.042118) vcan0 200#4200000000000000
(1790640799.042143) vcan0 300#00C2000000000000
(1790640799.042168) vcan0 400#0000000000000000
(1790640799.043804) vcan0 300#00C1000000000000
(1790640799.047320) vcan0 300#00C0000000000000
(1790640799.049628) vcan0 300#00BF000000000000
(1790640799.051495) vcan0 300#00BE000000000000
(1790640799.052810) vcan0 300#00BD000000000000
(1790640799.054448) vcan0 300#00BC000000000000
(1790640799.056442) vcan0 300#00BB000000000000
(1790640799.058146) vcan0 300#00BB000000000000
(1790640799.063303) vcan0 100#0DA8000000000000
(1790640799.063383) vcan0 300#00B8000000000000
(1790640799.072004) vcan0 300#00B4000000000000
(1790640799.082264) vcan0 100#0DA9000000000000
(1790640799.082322) vcan0 300#00AF000000000000
(1790640799.091947) vcan0 200#4200000000000000
(1790640799.091996) vcan0 300#00AA000000000000
(1790640799.102369) vcan0 100#0DA9000000000000
(1790640799.102433) vcan0 300#00A5000000000000
(1790640799.111782) vcan0 300#00A0000000000000
(1790640799.122318) vcan0 100#0DA9000000000000
(1790640799.122404) vcan0 300#009B000000000000
(1790640799.134768) vcan0 300#0095000000000000
(1790640799.142826) vcan0 100#0DAA000000000000
(1790640799.142917) vcan0 200#4200000000000000
(1790640799.142948) vcan0 300#0090000000000000
(1790640799.154235) vcan0 300#008B000000000000
(1790640799.247236) vcan0 100#0DAB000000000000
(1790640799.247337) vcan0 200#4200000000000000
(1790640799.247364) vcan0 300#0057000000000000
(1790640799.312320) vcan0 100#0DAB000000000000
(1790640799.312494) vcan0 200#4300000000000000
(1790640799.312551) vcan0 300#0031000000000000
(1790640799.375979) vcan0 100#0DAB000000000000
(1790640799.376185) vcan0 200#4300000000000000
(1790640799.376237) vcan0 300#000B000000000000
(1790640799.432229) vcan0 100#0DAB000000000000
(1790640799.432490) vcan0 200#4300000000000000
(1790640799.432561) vcan0 300#FFEA000000000000
(1790640799.434958) vcan0 100#0DAB000000000000
(1790640799.435258) vcan0 200#4300000000000000
(1790640799.435305) vcan0 300#FFE9000000000000
(1790640799.436652) vcan0 100#0DAB000000000000
(1790640799.436739) vcan0 300#FFE8000000000000
(1790640799.438225) vcan0 100#0DAB000000000000
(1790640799.438301) vcan0 300#FFE7000000000000
(1790640799.463599) vcan0 100#0DAB000000000000
(1790640799.463732) vcan0 200#4300000000000000
(1790640799.463780) vcan0 300#FFD8000000000000
(1790640799.484967) vcan0 100#0DAB000000000000
(1790640799.485119) vcan0 300#FFCB000000000000
(1790640799.486695) vcan0 100#0DAB000000000000
(1790640799.486801) vcan0 300#FFCA000000000000
(1790640799.488393) vcan0 100#0DAB000000000000
(1790640799.488499) vcan0 300#FFC9000000000000
(1790640799.505684) vcan0 100#0DAB000000000000
(1790640799.505754) vcan0 200#4300000000000000
(1790640799.505787) vcan0 300#FFBF000000000000
(1790640799.508003) vcan0 100#0DAB000000000000
(1790640799.508115) vcan0 300#FFBD000000000000
(1790640799.521405) vcan0 100#0DAB000000000000
(1790640799.521536) vcan0 300#FFB6000000000000
(1790640799.523079) vcan0 100#0DAB000000000000
(1790640799.523171) vcan0 300#FFB5000000000000
(1790640799.533603) vcan0 100#0DAB000000000000
(1790640799.533671) vcan0 300#FFAE000000000000
(1790640799.535726) vcan0 100#0DAB000000000000
(1790640799.535853) vcan0 300#FFAD000000000000
(1790640799.542081) vcan0 100#0DAB000000000000
(1790640799.542218) vcan0 200#4300000000000000
(1790640799.542362) vcan0 300#FFAA000000000000
(1790640799.542424) vcan0 400#0000000000000000
(1790640799.542468) vcan0 500#0900000000000000
(1790640799.542511) vcan0 7DF#02010D0000000000
(1790640799.544025) vcan0 100#0DAB000000000000
(1790640799.544162) vcan0 300#FFA8000000000000
(1790640799.548290) vcan0 100#0DAB000000000000
(1790640799.548438) vcan0 300#FFA6000000000000
(1790640799.551820) vcan0 300#FFA4000000000000
(1790640799.553913) vcan0 300#FFA3000000000000
(1790640799.555920) vcan0 300#FFA2000000000000
(1790640799.557584) vcan0 300#FFA1000000000000
(1790640799.559534) vcan0 300#FFA0000000000000
(1790640799.561032) vcan0 100#0DAB000000000000
(1790640799.561110) vcan0 300#FF9F000000000000
(1790640799.562519) vcan0 300#FF9E000000000000
(1790640799.563740) vcan0 300#FF9D000000000000
(1790640799.565387) vcan0 300#FF9C000000000000
(1790640799.567553) vcan0 300#FF9B000000000000
(1790640799.568991) vcan0 300#FF9A000000000000
(1790640799.571355) vcan0 300#FF99000000000000
(1790640799.572688) vcan0 300#FF98000000000000
(1790640799.574895) vcan0 300#FF97000000000000
(1790640799.576509) vcan0 300#FF96000000000000
(1790640799.577896) vcan0 300#FF95000000000000
(1790640799.579623) vcan0 300#FF94000000000000
(1790640799.581989) vcan0 100#0DAA000000000000
(1790640799.583014) vcan0 300#FF93000000000000
(1790640799.585198) vcan0 300#FF91000000000000
(1790640799.587226) vcan0 300#FF90000000000000
(1790640799.590332) vcan0 300#FF8E000000000000
(1790640799.592079) vcan0 200#4300000000000000
(1790640799.592780) vcan0 300#FF8D000000000000
(1790640799.594344) vcan0 300#FF8C000000000000
(1790640799.595756) vcan0 300#FF8B000000000000
(1790640799.601612) vcan0 100#0DAA000000000000
(1790640799.601781) vcan0 300#FF88000000000000
(1790640799.611806) vcan0 300#FF82000000000000
(1790640799.622387) vcan0 100#0DAA000000000000
(1790640799.622408) vcan0 300#FF7D000000000000
(1790640799.631659) vcan0 300#FF78000000000000
(1790640799.642220) vcan0 100#0DAA000000000000
(1790640799.642240) vcan0 200#4300000000000000
(1790640799.642247) vcan0 300#FF72000000000000
(1790640799.651345) vcan0 300#FF6D000000000000
(1790640799.662237) vcan0 100#0DA9000000000000
(1790640799.662258) vcan0 300#FF68000000000000
(1790640799.671262) vcan0 300#FF63000000000000
(1790640799.681469) vcan0 100#0DA9000000000000
(1790640799.681491) vcan0 300#FF5E000000000000
(1790640799.691344) vcan0 200#4300000000000000
(1790640799.691364) vcan0 300#FF59000000000000
(1790640799.702281) vcan0 100#0DA9000000000000
(1790640799.702302) vcan0 300#FF54000000000000
(1790640799.712180) vcan0 300#FF4F000000000000
(1790640799.799948) vcan0 100#0DA7000000000000
(1790640799.800071) vcan0 200#4300000000000000
(1790640799.800103) vcan0 300#FF27000000000000
(1790640799.804142) vcan0 100#0DA6000000000000
(1790640799.804221) vcan0 200#4300000000000000
(1790640799.804250) vcan0 300#FF26000000000000
(1790640799.805666) vcan0 100#0DA6000000000000
(1790640799.805749) vcan0 300#FF25000000000000
(1790640799.807569) vcan0 100#0DA6000000000000
(1790640799.807643) vcan0 300#FF24000000000000
(1790640799.819279) vcan0 100#0DA6000000000000
(1790640799.819324) vcan0 300#FF1F000000000000
(1790640799.820892) vcan0 300#FF1F000000000000
(1790640799.822267) vcan0 100#0DA6000000000000
(1790640799.822293) vcan0 300#FF1E000000000000
(1790640799.824494) vcan0 300#FF1D000000000000
(1790640799.827107) vcan0 300#FF1C000000000000
(1790640799.828246) vcan0 300#FF1C000000000000
(1790640799.829471) vcan0 300#FF1B000000000000
(1790640799.831847) vcan0 300#FF1A000000000000
(1790640799.842128) vcan0 100#0DA6000000000000
(1790640799.842151) vcan0 200#4300000000000000
(1790640799.842161) vcan0 300#FF17000000000000
(1790640799.851560) vcan0 300#FF13000000000000
(1790640799.861260) vcan0 100#0DA5000000000000
(1790640799.861319) vcan0 300#FF10000000000000
(1790640799.871466) vcan0 300#FF0C000000000000
(1790640799.881960) vcan0 100#0DA4000000000000
(1790640799.881988) vcan0 300#FF08000000000000
(1790640799.891546) vcan0 200#4300000000000000
(1790640799.891616) vcan0 300#FF05000000000000
(1790640799.901893) vcan0 100#0DA4000000000000
(1790640799.901971) vcan0 300#FF02000000000000
(1790640799.913082) vcan0 300#FEFE000000000000
(1790640799.921375) vcan0 100#0DA3000000000000
(1790640799.921408) vcan0 300#FEFC000000000000
(1790640799.932060) vcan0 300#FEF9000000000000
(1790640799.942528) vcan0 100#0DA3000000000000
(1790640799.942550) vcan0 200#4300000000000000
(1790640799.942557) vcan0 300#FEF6000000000000
(1790640800.002690) vcan0 100#0DA0000000000000
(1790640800.003532) vcan0 200#4300000000000000
(1790640800.003564) vcan0 300#FEE7000000000000
(1790640800.005980) vcan0 100#0DA0000000000000
(1790640800.006313) vcan0 300#FEE7000000000000
(1790640800.008489) vcan0 100#0DA0000000000000
(1790640800.008598) vcan0 300#FEE6000000000000
(1790640800.010899) vcan0 300#FEE6000000000000
(1790640800.013007) vcan0 300#FEE5000000000000
(1790640800.014716) vcan0 300#FEE5000000000000
(1790640800.016779) vcan0 300#FEE4000000000000
(1790640800.021180) vcan0 100#0DA0000000000000
(1790640800.021227) vcan0 300#FEE4000000000000
(1790640800.032357) vcan0 300#FEE2000000000000
(1790640800.042425) vcan0 100#0D9F000000000000
(1790640800.042499) vcan0 200#4300000000000000
(1790640800.042520) vcan0 300#FEE0000000000000
(1790640800.042541) vcan0 400#0000000000000000
(1790640800.051062) vcan0 300#FEDE000000000000
(1790640800.063608) vcan0 100#0D9E000000000000
(1790640800.063738) vcan0 300#FEDD000000000000
(1790640800.071861) vcan0 300#FEDC000000000000
(1790640800.083646) vcan0 100#0D9D000000000000
(1790640800.083749) vcan0 300#FEDA000000000000
(1790640800.091989) vcan0 200#4300000000000000
(1790640800.092072) vcan0 300#FED9000000000000
(1790640800.103701) vcan0 100#0D9C000000000000
(1790640800.103793) vcan0 300#FED8000000000000
(1790640800.132127) vcan0 100#0D9B000000000000
(1790640800.132831) vcan0 300#FED6000000000000
(1790640800.134202) vcan0 300#FED6000000000000
(1790640800.135672) vcan0 300#FED6000000000000
(1790640800.144317) vcan0 100#0D9B000000000000
(1790640800.144453) vcan0 200#4300000000000000
(1790640800.144501) vcan0 300#FED5000000000000
(1790640800.151967) vcan0 300#FED5000000000000
(1790640800.166529) vcan0 100#0D9A000000000000
(1790640800.166656) vcan0 300#FED5000000000000
(1790640800.172209) vcan0 300#FED5000000000000
(1790640800.187609) vcan0 100#0D99000000000000
(1790640800.187667) vcan0 300#FED5000000000000
(1790640800.192776) vcan0 200#4300000000000000
(1790640800.192915) vcan0 300#FED5000000000000
(1790640800.205623) vcan0 100#0D98000000000000
(1790640800.205837) vcan0 300#FED5000000000000
(1790640800.213103) vcan0 300#FED5000000000000
(1790640800.222999) vcan0 100#0D97000000000000
(1790640800.223153) vcan0 300#FED6000000000000
(1790640800.232575) vcan0 300#FED6000000000000
(1790640800.242042) vcan0 100#0D96000000000000
(1790640800.242178) vcan0 200#4300000000000000
(1790640800.242197) vcan0 300#FED7000000000000
(1790640800.252244) vcan0 300#FED8000000000000
(1790640800.264200) vcan0 100#0D95000000000000
(1790640800.264301) vcan0 300#FED9000000000000
(1790640800.272027) vcan0 300#FEDA000000000000
(1790640800.281562) vcan0 100#0D94000000000000
(1790640800.281673) vcan0 300#FEDB000000000000
(1790640800.292479) vcan0 200#4300000000000000
(1790640800.292619) vcan0 300#FEDC000000000000
(1790640800.301556) vcan0 100#0D93000000000000
(1790640800.301697) vcan0 300#FEDD000000000000
(1790640800.311326) vcan0 300#FEDF000000000000
(1790640800.322164) vcan0 100#0D92000000000000
(1790640800.323633) vcan0 300#FEE0000000000000
(1790640800.331839) vcan0 300#FEE2000000000000
(1790640800.341620) vcan0 100#0D91000000000000
(1790640800.341735) vcan0 200#4300000000000000
(1790640800.341754) vcan0 300#FEE4000000000000
(1790640800.351338) vcan0 300#FEE6000000000000
(1790640800.363879) vcan0 100#0D8F000000000000
(1790640800.364190) vcan0 300#FEE8000000000000
(1790640800.375934) vcan0 300#FEEB000000000000
(1790640800.381232) vcan0 100#0D8E000000000000
(1790640800.381379) vcan0 300#FEEC000000000000
(1790640800.423131) vcan0 100#0D8C000000000000
(1790640800.423329) vcan0 200#4300000000000000
(1790640800.423889) vcan0 300#FEF7000000000000
(1790640800.425619) vcan0 100#0D8C000000000000
(1790640800.425751) vcan0 300#FEF8000000000000
(1790640800.427955) vcan0 300#FEF9000000000000
(1790640800.429665) vcan0 300#FEF9000000000000
(1790640800.431619) vcan0 300#FEFA000000000000
(1790640800.442947) vcan0 100#0D8B000000000000
(1790640800.443004) vcan0 200#4300000000000000
(1790640800.443034) vcan0 300#FEFD000000000000
(1790640800.452060) vcan0 300#FF00000000000000
(1790640800.462869) vcan0 100#0D89000000000000
(1790640800.463048) vcan0 300#FF03000000000000
(1790640800.559449) vcan0 100#0D83000000000000
(1790640800.559860) vcan0 200#4300000000000000
(1790640800.559891) vcan0 300#FF27000000000000
(1790640800.559923) vcan0 400#0200000000000000
(1790640800.565002) vcan0 500#0A00000000000000
(1790640800.566609) vcan0 100#0D83000000000000
(1790640800.566738) vcan0 200#4300000000000000
(1790640800.566756) vcan0 300#FF2A000000000000
(1790640800.568530) vcan0 100#0D82000000000000
(1790640800.568636) vcan0 300#FF2A000000000000
(1790640800.570209) vcan0 100#0D82000000000000
(1790640800.570338) vcan0 300#FF2B000000000000
(1790640800.572567) vcan0 100#0D82000000000000
(1790640800.572704) vcan0 300#FF2C000000000000
(1790640800.574513) vcan0 300#FF2D000000000000
(1790640800.578349) vcan0 300#FF2F000000000000
(1790640800.580006) vcan0 300#FF2F000000000000
(1790640800.589287) vcan0 100#0D81000000000000
(1790640800.589516) vcan0 300#FF33000000000000
(1790640800.591376) vcan0 200#4300000000000000
(1790640800.591566) vcan0 300#FF34000000000000
(1790640800.592842) vcan0 300#FF35000000000000
(1790640800.594230) vcan0 300#FF36000000000000
(1790640800.595991) vcan0 300#FF36000000000000
(1790640800.602704) vcan0 100#0D80000000000000
(1790640800.602866) vcan0 300#FF39000000000000
(1790640800.616978) vcan0 300#FF40000000000000
(1790640800.621153) vcan0 100#0D7F000000000000
(1790640800.621343) vcan0 300#FF42000000000000
(1790640800.637838) vcan0 300#FF4A000000000000
(1790640800.644997) vcan0 100#0D7D000000000000
(1790640800.645231) vcan0 200#4300000000000000
(1790640800.645266) vcan0 300#FF4D000000000000
(1790640800.651641) vcan0 300#FF50000000000000
(1790640800.661843) vcan0 100#0D7C000000000000
(1790640800.661886) vcan0 300#FF55000000000000
(1790640800.679504) vcan0 300#FF5E000000000000
(1790640800.688677) vcan0 100#0D7A000000000000
(1790640800.688890) vcan0 300#FF63000000000000
(1790640800.692077) vcan0 200#4300000000000000
(1790640800.692264) vcan0 300#FF64000000000000
(1790640800.708860) vcan0 100#0D78000000000000
(1790640800.708920) vcan0 300#FF6D000000000000
(1790640800.713218) vcan0 300#FF6F000000000000
(1790640800.721453) vcan0 100#0D77000000000000
(1790640800.721606) vcan0 300#FF74000000000000
(1790640800.732473) vcan0 300#FF79000000000000
(1790640800.750111) vcan0 100#0D75000000000000
(1790640800.750350) vcan0 200#4300000000000000
(1790640800.750385) vcan0 300#FF83000000000000
(1790640800.752037) vcan0 300#FF84000000000000
(1790640800.777039) vcan0 100#0D73000000000000
(1790640800.777208) vcan0 300#FF92000000000000
(1790640800.779928) vcan0 300#FF94000000000000
(1790640800.781968) vcan0 100#0D72000000000000
(1790640800.782096) vcan0 300#FF95000000000000
(1790640800.809160) vcan0 100#0D70000000000000
(1790640800.809225) vcan0 200#4300000000000000
(1790640800.809261) vcan0 300#FFA4000000000000
(1790640800.811161) vcan0 300#FFA5000000000000
(1790640800.812658) vcan0 300#FFA6000000000000
(1790640800.821260) vcan0 100#0D6F000000000000
(1790640800.821376) vcan0 300#FFAB000000000000
(1790640800.840947) vcan0 300#FFB6000000000000
(1790640800.844050) vcan0 100#0D6D000000000000
(1790640800.844194) vcan0 200#4400000000000000
(1790640800.844215) vcan0 300#FFB8000000000000
(1790640800.852146) vcan0 300#FFBD000000000000
(1790640800.861839) vcan0 100#0D6B000000000000
(1790640800.862001) vcan0 300#FFC3000000000000
(1790640800.872564) vcan0 300#FFC9000000000000
(1790640800.885026) vcan0 100#0D69000000000000
(1790640800.885194) vcan0 300#FFD0000000000000
(1790640800.899570) vcan0 200#4400000000000000
(1790640800.899627) vcan0 300#FFD9000000000000
(1790640800.901620) vcan0 100#0D68000000000000
(1790640800.901813) vcan0 300#FFDA000000000000
(1790640800.917126) vcan0 300#FFE3000000000000
(1790640800.921058) vcan0 100#0D66000000000000
(1790640800.921319) vcan0 300#FFE6000000000000
(1790640800.931454) vcan0 300#FFEC000000000000
(1790640800.943749) vcan0 100#0D64000000000000
(1790640800.943914) vcan0 200#4400000000000000
(1790640800.943939) vcan0 300#FFF3000000000000
(1790640800.951128) vcan0 300#FFF8000000000000
(1790640800.962409) vcan0 100#0D62000000000000
(1790640800.962547) vcan0 300#FFFE000000000000
(1790640800.972532) vcan0 300#0004000000000000
(1790640800.984725) vcan0 100#0D60000000000000
(1790640800.984912) vcan0 300#000B000000000000
(1790640801.001768) vcan0 100#0D5F000000000000
(1790640801.001998) vcan0 200#4400000000000000
(1790640801.002033) vcan0 300#0015000000000000
(1790640801.003703) vcan0 300#0016000000000000
(1790640801.012287) vcan0 300#001B000000000000
(1790640801.022470) vcan0 100#0D5D000000000000
(1790640801.022520) vcan0 300#0021000000000000
(1790640801.032193) vcan0 300#0027000000000000
(1790640801.041856) vcan0 100#0D5B000000000000
(1790640801.041934) vcan0 200#4400000000000000
(1790640801.041958) vcan0 300#002D000000000000
(1790640801.041983) vcan0 400#0000000000000000
(1790640801.052530) vcan0 300#0033000000000000
(1790640801.062009) vcan0 100#0D59000000000000
(1790640801.062103) vcan0 300#0039000000000000
(1790640801.071991) vcan0 300#003F000000000000
(1790640801.081477) vcan0 100#0D57000000000000
(1790640801.081508) vcan0 300#0044000000000000
(1790640801.093446) vcan0 200#4400000000000000
(1790640801.093523) vcan0 300#004B000000000000
(1790640801.102576) vcan0 100#0D55000000000000
(1790640801.102664) vcan0 300#0051000000000000
(1790640801.112533) vcan0 300#0056000000000000
(1790640801.121200) vcan0 100#0D53000000000000
(1790640801.121289) vcan0 300#005B000000000000
(1790640801.146872) vcan0 100#0D50000000000000
(1790640801.147016) vcan0 200#4400000000000000
(1790640801.147058) vcan0 300#006A000000000000
(1790640801.148984) vcan0 300#006B000000000000
(1790640801.151998) vcan0 300#006D000000000000
(1790640801.161183) vcan0 100#0D4F000000000000
(1790640801.161253) vcan0 300#0072000000000000
(1790640801.177522) vcan0 300#007B000000000000
(1790640801.181230) vcan0 100#0D4D000000000000
(1790640801.181342) vcan0 300#007D000000000000
(1790640801.191058) vcan0 200#4400000000000000
(1790640801.191126) vcan0 300#0082000000000000
(1790640801.201376) vcan0 100#0D4B000000000000
(1790640801.201398) vcan0 300#0088000000000000
(1790640801.213346) vcan0 300#008E000000000000
(1790640801.221691) vcan0 100#0D49000000000000
(1790640801.221747) vcan0 300#0092000000000000
(1790640801.232119) vcan0 300#0098000000000000
(1790640801.241201) vcan0 100#0D46000000000000
(1790640801.241257) vcan0 200#4400000000000000
(1790640801.241265) vcan0 300#009D000000000000
(1790640801.252958) vcan0 300#00A2000000000000
(1790640801.272288) vcan0 100#0D43000000000000
(1790640801.272362) vcan0 300#00AC000000000000
(1790640801.274804) vcan0 300#00AD000000000000
(1790640801.282805) vcan0 100#0D42000000000000
(1790640801.282980) vcan0 300#00B1000000000000
(1790640801.293335) vcan0 200#4400000000000000
(1790640801.293431) vcan0 300#00B6000000000000
(1790640801.306844) vcan0 100#0D3F000000000000
(1790640801.306936) vcan0 300#00BD000000000000
(1790640801.312869) vcan0 300#00BF000000000000
(1790640801.321700) vcan0 100#0D3E000000000000
(1790640801.321796) vcan0 300#00C3000000000000
(1790640801.339827) vcan0 300#00CC000000000000
(1790640801.350460) vcan0 100#0D3A000000000000
(1790640801.350697) vcan0 200#4400000000000000
(1790640801.350732) vcan0 300#00D0000000000000
(1790640801.352326) vcan0 300#00D1000000000000
(1790640801.362566) vcan0 100#0D39000000000000
(1790640801.362748) vcan0 300#00D5000000000000
(1790640801.378321) vcan0 300#00DC000000000000
(1790640801.388601) vcan0 100#0D36000000000000
(1790640801.388813) vcan0 300#00E0000000000000
(1790640801.392590) vcan0 200#4400000000000000
(1790640801.392737) vcan0 300#00E2000000000000
(1790640801.410218) vcan0 100#0D33000000000000
(1790640801.410278) vcan0 300#00E8000000000000
(1790640801.412652) vcan0 300#00E9000000000000
(1790640801.423649) vcan0 100#0D32000000000000
(1790640801.423801) vcan0 300#00ED000000000000
(1790640801.431507) vcan0 300#00F0000000000000
(1790640801.442556) vcan0 100#0D2F000000000000
(1790640801.442776) vcan0 200#4400000000000000
(1790640801.442797) vcan0 300#00F4000000000000
(1790640801.452132) vcan0 300#00F7000000000000
(1790640801.468592) vcan0 100#0D2C000000000000
(1790640801.468623) vcan0 300#00FD000000000000
(1790640801.471306) vcan0 300#00FE000000000000
(1790640801.481184) vcan0 100#0D2B000000000000
(1790640801.481240) vcan0 300#0101000000000000
(1790640801.491161) vcan0 200#4400000000000000
(1790640801.491213) vcan0 300#0104000000000000
(1790640801.501066) vcan0 100#0D28000000000000
(1790640801.501115) vcan0 300#0107000000000000
(1790640801.512392) vcan0 300#010A000000000000
(1790640801.522277) vcan0 100#0D26000000000000
(1790640801.522297) vcan0 300#010D000000000000
(1790640801.531491) vcan0 300#010F000000000000
(1790640801.541389) vcan0 100#0D23000000000000
(1790640801.541414) vcan0 200#4400000000000000
(1790640801.541424) vcan0 300#0111000000000000
(1790640801.541437) vcan0 400#0000000000000000
(1790640801.541445) vcan0 500#0B00000000000000
(1790640801.541453) vcan0 7DF#02010C0000000000
(1790640801.551778) vcan0 300#0114000000000000
(1790640801.561960) vcan0 100#0D21000000000000
(1790640801.562029) vcan0 300#0116000000000000
(1790640801.572143) vcan0 300#0118000000000000
(1790640801.581460) vcan0 100#0D1E000000000000
(1790640801.581489) vcan0 300#011A000000000000
(1790640801.592615) vcan0 200#4400000000000000
(1790640801.592741) vcan0 300#011C000000000000
(1790640801.602622) vcan0 100#0D1C000000000000
(1790640801.602753) vcan0 300#011E000000000000
(1790640801.614282) vcan0 300#0120000000000000
(1790640801.628385) vcan0 100#0D18000000000000
(1790640801.628474) vcan0 300#0122000000000000
(1790640801.631295) vcan0 300#0123000000000000
(1790640801.642962) vcan0 100#0D16000000000000
(1790640801.643010) vcan0 200#4400000000000000
(1790640801.643035) vcan0 300#0124000000000000
(1790640801.660610) vcan0 300#0127000000000000
(1790640801.664954) vcan0 100#0D14000000000000
(1790640801.665144) vcan0 300#0127000000000000
(1790640801.672549) vcan0 300#0128000000000000
(1790640801.681093) vcan0 100#0D11000000000000
(1790640801.681298) vcan0 300#0129000000000000
(1790640801.698257) vcan0 200#4400000000000000
(1790640801.698409) vcan0 300#012A000000000000
(1790640801.702957) vcan0 100#0D0F000000000000
(1790640801.703270) vcan0 300#012A000000000000
(1790640801.719078) vcan0 300#012B000000000000
(1790640801.723849) vcan0 100#0D0C000000000000
(1790640801.724212) vcan0 300#012B000000000000
(1790640801.732396) vcan0 300#012B000000000000
(1790640801.744047) vcan0 100#0D09000000000000
(1790640801.744214) vcan0 200#4400000000000000
(1790640801.744237) vcan0 300#012B000000000000
(1790640801.751306) vcan0 300#012B000000000000
(1790640801.763907) vcan0 100#0D06000000000000
(1790640801.764050) vcan0 300#012B000000000000
(1790640801.771119) vcan0 300#012B000000000000
(1790640801.783595) vcan0 100#0D04000000000000
(1790640801.783762) vcan0 300#012B000000000000
(1790640801.793319) vcan0 200#4400000000000000
(1790640801.793446) vcan0 300#012A000000000000
(1790640801.803518) vcan0 100#0D01000000000000
(1790640801.803646) vcan0 300#012A000000000000
(1790640801.813632) vcan0 300#0129000000000000
(1790640801.821072) vcan0 100#0CFE000000000000
(1790640801.821196) vcan0 300#0129000000000000
(1790640801.841879) vcan0 100#0CFB000000000000
(1790640801.842035) vcan0 200#4400000000000000
(1790640801.842055) vcan0 300#0127000000000000
(1790640801.843332) vcan0 300#0126000000000000
(1790640801.851629) vcan0 300#0125000000000000
(1790640801.870038) vcan0 100#0CF7000000000000
(1790640801.870880) vcan0 300#0123000000000000
(1790640801.872675) vcan0 300#0123000000000000
(1790640801.882956) vcan0 100#0CF6000000000000
(1790640801.883147) vcan0 300#0121000000000000
(1790640801.891594) vcan0 200#4400000000000000
(1790640801.891810) vcan0 300#0120000000000000
(1790640801.905410) vcan0 100#0CF2000000000000
(1790640801.905622) vcan0 300#011D000000000000
(1790640801.912630) vcan0 300#011C000000000000
(1790640801.921533) vcan0 100#0CF0000000000000
(1790640801.921718) vcan0 300#011A000000000000
(1790640801.939449) vcan0 300#0117000000000000
(1790640801.941119) vcan0 100#0CED000000000000
(1790640801.941386) vcan0 200#4400000000000000
(1790640801.941428) vcan0 300#0116000000000000
(1790640801.954496) vcan0 300#0113000000000000
(1790640801.971033) vcan0 100#0CE9000000000000
(1790640801.971095) vcan0 300#010F000000000000
(1790640801.972932) vcan0 300#010E000000000000
(1790640801.981916) vcan0 100#0CE7000000000000
(1790640801.982084) vcan0 300#010C000000000000
(1790640801.997044) vcan0 200#4400000000000000
(1790640801.997100) vcan0 300#0108000000000000
(1790640802.001140) vcan0 100#0CE4000000000000
(1790640802.001188) vcan0 300#0107000000000000
(1790640802.013145) vcan0 300#0103000000000000
(1790640802.021130) vcan0 100#0CE1000000000000
(1790640802.021169) vcan0 300#0101000000000000
(1790640802.032558) vcan0 300#00FD000000000000
(1790640802.042105) vcan0 100#0CDE000000000000
(1790640802.042134) vcan0 200#4400000000000000
(1790640802.042144) vcan0 300#00FA000000000000
(1790640802.042157) vcan0 400#0200000000000000
(1790640802.052509) vcan0 300#00F7000000000000
(1790640802.063834) vcan0 100#0CDB000000000000
(1790640802.063940) vcan0 300#00F3000000000000
(1790640802.071080) vcan0 300#00F0000000000000
(1790640802.081828) vcan0 100#0CD8000000000000
(1790640802.081873) vcan0 300#00EC000000000000
(1790640802.092892) vcan0 200#4400000000000000
(1790640802.092934) vcan0 300#00E8000000000000
(1790640802.101985) vcan0 100#0CD5000000000000
(1790640802.102096) vcan0 300#00E5000000000000
(1790640802.112743) vcan0 300#00E0000000000000
(1790640802.123067) vcan0 100#0CD2000000000000
(1790640802.123184) vcan0 300#00DC000000000000
(1790640802.131671) vcan0 300#00D9000000000000
(1790640802.142892) vcan0 100#0CCF000000000000
(1790640802.142996) vcan0 200#4400000000000000
(1790640802.143030) vcan0 300#00D4000000000000
(1790640802.152496) vcan0 300#00D0000000000000
(1790640802.162765) vcan0 100#0CCB000000000000
(1790640802.162812) vcan0 300#00CB000000000000
(1790640802.172232) vcan0 300#00C7000000000000
(1790640802.181939) vcan0 100#0CC8000000000000
(1790640802.182028) vcan0 300#00C3000000000000
(1790640802.192586) vcan0 200#4400000000000000
(1790640802.192675) vcan0 300#00BE000000000000
(1790640802.202660) vcan0 100#0CC5000000000000
(1790640802.202755) vcan0 300#00B9000000000000
(1790640802.212492) vcan0 300#00B5000000000000
(1790640802.221703) vcan0 100#0CC2000000000000
(1790640802.221744) vcan0 300#00B0000000000000
(1790640802.232627) vcan0 300#00AB000000000000
(1790640802.241113) vcan0 100#0CBF000000000000
(1790640802.241205) vcan0 200#4400000000000000
(1790640802.241238) vcan0 300#00A7000000000000
(1790640802.252437) vcan0 300#00A1000000000000
(1790640802.261862) vcan0 100#0CBC000000000000
(1790640802.261961) vcan0 300#009C000000000000
(1790640802.272726) vcan0 300#0097000000000000
(1790640802.281358) vcan0 100#0CB8000000000000
(1790640802.281493) vcan0 300#0092000000000000
(1790640802.292704) vcan0 200#4400000000000000
(1790640802.292811) vcan0 300#008C000000000000
(1790640802.302626) vcan0 100#0CB5000000000000
(1790640802.302669) vcan0 300#0087000000000000
(1790640802.311617) vcan0 300#0082000000000000
(1790640802.321280) vcan0 100#0CB2000000000000
(1790640802.321380) vcan0 300#007D000000000000
(1790640802.331764) vcan0 300#0077000000000000
(1790640802.342797) vcan0 100#0CAE000000000000
(1790640802.342831) vcan0 200#4400000000000000
(1790640802.342847) vcan0 300#0071000000000000
(1790640802.353120) vcan0 300#006B000000000000
(1790640802.362197) vcan0 100#0CAB000000000000
(1790640802.362229) vcan0 300#0066000000000000
(1790640802.371264) vcan0 300#0061000000000000
(1790640802.381738) vcan0 100#0CA8000000000000
(1790640802.381796) vcan0 300#005B000000000000
(1790640802.392301) vcan0 200#4400000000000000
(1790640802.392365) vcan0 300#0055000000000000
(1790640802.402095) vcan0 100#0CA4000000000000
(1790640802.402126) vcan0 300#004F000000000000
(1790640802.412508) vcan0 300#0049000000000000
(1790640802.422986) vcan0 100#0CA1000000000000
(1790640802.423076) vcan0 300#0043000000000000
(1790640802.433035) vcan0 300#003D000000000000
(1790640802.442621) vcan0 100#0C9D000000000000
(1790640802.442662) vcan0 200#4400000000000000
(1790640802.442680) vcan0 300#0038000000000000
(1790640802.452739) vcan0 300#0032000000000000
(1790640802.461114) vcan0 100#0C9A000000000000
(1790640802.461233) vcan0 300#002D000000000000
(1790640802.471147) vcan0 300#0027000000000000
(1790640802.482193) vcan0 100#0C97000000000000
(1790640802.482241) vcan0 300#0020000000000000
(1790640802.491747) vcan0 200#4400000000000000
(1790640802.491840) vcan0 300#001A000000000000
(1790640802.502873) vcan0 100#0C93000000000000
(1790640802.502988) vcan0 300#0014000000000000
(1790640802.512581) vcan0 300#000E000000000000
(1790640802.521822) vcan0 100#0C90000000000000
(1790640802.521863) vcan0 300#0008000000000000
(1790640802.531705) vcan0 300#0002000000000000
(1790640802.541717) vcan0 100#0C8C000000000000
(1790640802.541764) vcan0 200#4400000000000000
(1790640802.541784) vcan0 300#FFFD000000000000
(1790640802.541809) vcan0 400#0200000000000000
(1790640802.541825) vcan0 500#0C00000000000000
(1790640802.551284) vcan0 300#FFF8000000000000
(1790640802.562891) vcan0 100#0C88000000000000
(1790640802.563000) vcan0 300#FFF1000000000000
(1790640802.572153) vcan0 300#FFEB000000000000
(1790640802.581087) vcan0 100#0C85000000000000
(1790640802.581123) vcan0 300#FFE6000000000000
(1790640802.591808) vcan0 200#4400000000000000
(1790640802.591898) vcan0 300#FFDF000000000000
(1790640802.601118) vcan0 100#0C82000000000000
(1790640802.601150) vcan0 300#FFDA000000000000
(1790640802.611245) vcan0 300#FFD4000000000000
(1790640802.622468) vcan0 100#0C7E000000000000
(1790640802.622558) vcan0 300#FFCD000000000000
(1790640802.631850) vcan0 300#FFC8000000000000
(1790640802.641233) vcan0 100#0C7A000000000000
(1790640802.641277) vcan0 200#4400000000000000
(1790640802.641292) vcan0 300#FFC2000000000000
(1790640802.651127) vcan0 300#FFBC000000000000
(1790640802.662071) vcan0 100#0C77000000000000
(1790640802.662111) vcan0 300#FFB6000000000000
(1790640802.671138) vcan0 300#FFB1000000000000
(1790640802.681356) vcan0 100#0C73000000000000
(1790640802.681387) vcan0 300#FFAB000000000000
(1790640802.692865) vcan0 200#4400000000000000
(1790640802.692953) vcan0 300#FFA4000000000000
(1790640802.702950) vcan0 100#0C6F000000000000
(1790640802.703031) vcan0 300#FF9F000000000000
(1790640802.712763) vcan0 300#FF99000000000000
(1790640802.721786) vcan0 100#0C6C000000000000
(1790640802.721818) vcan0 300#FF94000000000000
(1790640802.732187) vcan0 300#FF8E000000000000
(1790640802.741694) vcan0 100#0C68000000000000
(1790640802.741724) vcan0 200#4500000000000000
(1790640802.741736) vcan0 300#FF89000000000000
(1790640802.752534) vcan0 300#FF83000000000000
(1790640802.763021) vcan0 100#0C64000000000000
(1790640802.763055) vcan0 300#FF7D000000000000
(1790640802.772037) vcan0 300#FF78000000000000
(1790640802.781219) vcan0 100#0C60000000000000
(1790640802.781300) vcan0 300#FF74000000000000
(1790640802.791474) vcan0 200#4500000000000000
(1790640802.791569) vcan0 300#FF6E000000000000
(1790640802.802154) vcan0 100#0C5D000000000000
(1790640802.802258) vcan0 300#FF69000000000000
(1790640802.812795) vcan0 300#FF63000000000000
(1790640802.821133) vcan0 100#0C59000000000000
(1790640802.821171) vcan0 300#FF5F000000000000
(1790640802.832162) vcan0 300#FF59000000000000
(1790640802.841546) vcan0 100#0C55000000000000
(1790640802.841585) vcan0 200#4500000000000000
(1790640802.841602) vcan0 300#FF55000000000000
(1790640802.851129) vcan0 300#FF50000000000000
(1790640802.861274) vcan0 100#0C51000000000000
(1790640802.861367) vcan0 300#FF4B000000000000
(1790640802.871221) vcan0 300#FF46000000000000
(1790640802.882766) vcan0 100#0C4D000000000000
(1790640802.882800) vcan0 300#FF41000000000000
(1790640802.892469) vcan0 200#4500000000000000
(1790640802.892554) vcan0 300#FF3D000000000000
(1790640802.902763) vcan0 100#0C49000000000000
(1790640802.902841) vcan0 300#FF38000000000000
(1790640802.911437) vcan0 300#FF34000000000000
(1790640802.922044) vcan0 100#0C46000000000000
(1790640802.922072) vcan0 300#FF2F000000000000
(1790640802.931141) vcan0 300#FF2C000000000000
(1790640802.942113) vcan0 100#0C42000000000000
(1790640802.942143) vcan0 200#4500000000000000
(1790640802.942154) vcan0 300#FF27000000000000
(1790640802.951144) vcan0 300#FF23000000000000
(1790640802.961126) vcan0 100#0C3E000000000000
(1790640802.961158) vcan0 300#FF1F000000000000
(1790640802.973457) vcan0 300#FF1A000000000000
(1790640802.982819) vcan0 100#0C3A000000000000
(1790640802.982861) vcan0 300#FF17000000000000
(1790640802.992854) vcan0 200#4500000000000000
(1790640802.992951) vcan0 300#FF13000000000000
(1790640803.002291) vcan0 100#0C36000000000000
(1790640803.002384) vcan0 300#FF10000000000000
(1790640803.012077) vcan0 300#FF0C000000000000
(1790640803.022344) vcan0 100#0C32000000000000
(1790640803.022376) vcan0 300#FF09000000000000
(1790640803.032309) vcan0 300#FF05000000000000
(1790640803.042631) vcan0 100#0C2E000000000000
(1790640803.042687) vcan0 200#4500000000000000
(1790640803.042699) vcan0 300#FF02000000000000
(1790640803.042711) vcan0 400#0400000000000000
(1790640803.051389) vcan0 300#FEFF000000000000
(1790640803.061176) vcan0 100#0C2A000000000000
(1790640803.061264) vcan0 300#FEFC000000000000
(1790640803.071207) vcan0 300#FEF9000000000000
(1790640803.081271) vcan0 100#0C26000000000000
(1790640803.081302) vcan0 300#FEF7000000000000
(1790640803.092828) vcan0 200#4500000000000000
(1790640803.092915) vcan0 300#FEF3000000000000
(1790640803.102334) vcan0 100#0C22000000000000
(1790640803.102432) vcan0 300#FEF1000000000000
(1790640803.111155) vcan0 300#FEEF000000000000
(1790640803.122886) vcan0 100#0C1E000000000000
(1790640803.122975) vcan0 300#FEEC000000000000
(1790640803.131643) vcan0 300#FEEA000000000000
(1790640803.141356) vcan0 100#0C1A000000000000
(1790640803.141387) vcan0 200#4500000000000000
(1790640803.141398) vcan0 300#FEE8000000000000
(1790640803.152830) vcan0 300#FEE6000000000000
(1790640803.161251) vcan0 100#0C16000000000000
(1790640803.161283) vcan0 300#FEE4000000000000
(1790640803.171789) vcan0 300#FEE2000000000000
(1790640803.181138) vcan0 100#0C12000000000000
(1790640803.181168) vcan0 300#FEE0000000000000
(1790640803.191125) vcan0 200#4500000000000000
(1790640803.191206) vcan0 300#FEDF000000000000
(1790640803.202202) vcan0 100#0C0D000000000000
(1790640803.202277) vcan0 300#FEDD000000000000
(1790640803.212139) vcan0 300#FEDC000000000000
(1790640803.221203) vcan0 100#0C09000000000000
(1790640803.221229) vcan0 300#FEDB000000000000
(1790640803.232384) vcan0 300#FED9000000000000
(1790640803.241447) vcan0 100#0C05000000000000
(1790640803.241471) vcan0 200#4500000000000000
(1790640803.241481) vcan0 300#FED8000000000000
(1790640803.252066) vcan0 300#FED7000000000000
(1790640803.261439) vcan0 100#0C01000000000000
(1790640803.261480) vcan0 300#FED7000000000000
(1790640803.271293) vcan0 300#FED6000000000000
(1790640803.281223) vcan0 100#0BFD000000000000
(1790640803.281269) vcan0 300#FED5000000000000
(1790640803.292902) vcan0 200#4500000000000000
(1790640803.292938) vcan0 300#FED5000000000000
(1790640803.302089) vcan0 100#0BF8000000000000
(1790640803.302173) vcan0 300#FED5000000000000
(1790640803.311209) vcan0 300#FED5000000000000
(1790640803.322587) vcan0 100#0BF4000000000000
(1790640803.322622) vcan0 300#FED5000000000000
(1790640803.333874) vcan0 300#FED5000000000000
(1790640803.341399) vcan0 100#0BF0000000000000
(1790640803.341429) vcan0 200#4500000000000000
(1790640803.341441) vcan0 300#FED5000000000000
(1790640803.351203) vcan0 300#FED5000000000000
(1790640803.361333) vcan0 100#0BEC000000000000
(1790640803.361364) vcan0 300#FED5000000000000
(1790640803.373057) vcan0 300#FED6000000000000
(1790640803.384038) vcan0 100#0BE7000000000000
(1790640803.384069) vcan0 300#FED7000000000000
(1790640803.393617) vcan0 200#4500000000000000
(1790640803.393657) vcan0 300#FED8000000000000
(1790640803.401057) vcan0 100#0BE3000000000000
(1790640803.401139) vcan0 300#FED8000000000000
(1790640803.418488) vcan0 300#FEDA000000000000
(1790640803.432947) vcan0 100#0BDC000000000000
(1790640803.433071) vcan0 300#FEDC000000000000
(1790640803.434786) vcan0 300#FEDC000000000000
(1790640803.442842) vcan0 100#0BDA000000000000
(1790640803.442907) vcan0 200#4500000000000000
(1790640803.442938) vcan0 300#FEDD000000000000
(1790640803.455534) vcan0 300#FEDF000000000000
(1790640803.461417) vcan0 100#0BD6000000000000
(1790640803.461494) vcan0 300#FEE0000000000000
(1790640803.471313) vcan0 300#FEE2000000000000
(1790640803.482226) vcan0 100#0BD2000000000000
(1790640803.482282) vcan0 300#FEE4000000000000
(1790640803.491612) vcan0 200#4500000000000000
(1790640803.491671) vcan0 300#FEE6000000000000
(1790640803.501411) vcan0 100#0BCD000000000000
(1790640803.501474) vcan0 300#FEE8000000000000
(1790640803.512442) vcan0 300#FEEA000000000000
(1790640803.522784) vcan0 100#0BC9000000000000
(1790640803.522810) vcan0 300#FEEC000000000000
(1790640803.531020) vcan0 300#FEEE000000000000
(1790640803.541189) vcan0 100#0BC5000000000000
(1790640803.541272) vcan0 200#4500000000000000
(1790640803.541296) vcan0 300#FEF1000000000000
(1790640803.541323) vcan0 400#0000000000000000
(1790640803.541343) vcan0 500#0D00000000000000
(1790640803.541365) vcan0 7DF#02010D0000000000
(1790640803.551731) vcan0 300#FEF4000000000000
(1790640803.561370) vcan0 100#0BC0000000000000
(1790640803.561415) vcan0 300#FEF6000000000000
(1790640803.571880) vcan0 300#FEF9000000000000
(1790640803.582042) vcan0 100#0BBC000000000000
(1790640803.582081) vcan0 300#FEFC000000000000
(1790640803.592720) vcan0 200#4500000000000000
(1790640803.592800) vcan0 300#FEFF000000000000
(1790640803.601529) vcan0 100#0BB7000000000000
(1790640803.601605) vcan0 300#FF02000000000000
(1790640803.611225) vcan0 300#FF05000000000000
(1790640803.621833) vcan0 100#0BB3000000000000
(1790640803.621858) vcan0 300#FF09000000000000
(1790640803.631116) vcan0 300#FF0C000000000000
(1790640803.642509) vcan0 100#0BAE000000000000
(1790640803.642531) vcan0 200#4500000000000000
(1790640803.642542) vcan0 300#FF10000000000000
(1790640803.653151) vcan0 300#FF14000000000000
(1790640803.662146) vcan0 100#0BAA000000000000
(1790640803.662163) vcan0 300#FF17000000000000
(1790640803.672521) vcan0 300#FF1B000000000000
(1790640803.681167) vcan0 100#0BA5000000000000
(1790640803.681184) vcan0 300#FF1F000000000000
(1790640803.692105) vcan0 200#4500000000000000
(1790640803.692155) vcan0 300#FF23000000000000
(1790640803.702106) vcan0 100#0BA1000000000000
(1790640803.702158) vcan0 300#FF27000000000000
(1790640803.712380) vcan0 300#FF2B000000000000
(1790640803.722193) vcan0 100#0B9C000000000000
(1790640803.722212) vcan0 300#FF30000000000000
(1790640803.732329) vcan0 300#FF34000000000000
(1790640803.742202) vcan0 100#0B97000000000000
(1790640803.742221) vcan0 200#4500000000000000
(1790640803.742229) vcan0 300#FF38000000000000
(1790640803.752127) vcan0 300#FF3D000000000000
(1790640803.761491) vcan0 100#0B93000000000000
(1790640803.761548) vcan0 300#FF41000000000000
(1790640803.772025) vcan0 300#FF46000000000000
(1790640803.781261) vcan0 100#0B8E000000000000
(1790640803.781404) vcan0 300#FF4A000000000000
(1790640803.791436) vcan0 200#4500000000000000
(1790640803.791562) vcan0 300#FF4F000000000000
(1790640803.801642) vcan0 100#0B8A000000000000
(1790640803.801709) vcan0 300#FF54000000000000
(1790640803.811508) vcan0 300#FF59000000000000
(1790640803.822249) vcan0 100#0B85000000000000
(1790640803.822273) vcan0 300#FF5F000000000000
(1790640803.832936) vcan0 300#FF64000000000000
(1790640803.842329) vcan0 100#0B80000000000000
(1790640803.842409) vcan0 200#4500000000000000
(1790640803.842419) vcan0 300#FF69000000000000
(1790640803.853795) vcan0 300#FF6F000000000000
(1790640803.864358) vcan0 100#0B7B000000000000
(1790640803.865365) vcan0 300#FF74000000000000
(1790640803.873041) vcan0 300#FF79000000000000
(1790640803.894543) vcan0 100#0B74000000000000
(1790640803.894620) vcan0 200#4500000000000000
(1790640803.894631) vcan0 300#FF85000000000000
(1790640803.895802) vcan0 300#FF85000000000000
(1790640803.901694) vcan0 100#0B72000000000000
(1790640803.901762) vcan0 300#FF89000000000000
(1790640803.916910) vcan0 300#FF91000000000000
(1790640803.921939) vcan0 100#0B6E000000000000
(1790640803.922009) vcan0 300#FF94000000000000
(1790640803.931668) vcan0 300#FF99000000000000
(1790640803.948555) vcan0 100#0B67000000000000
(1790640803.948630) vcan0 200#4500000000000000
(1790640803.948653) vcan0 300#FFA3000000000000
(1790640803.951679) vcan0 300#FFA5000000000000
(1790640803.969646) vcan0 100#0B62000000000000
(1790640803.969728) vcan0 300#FFAF000000000000
(1790640803.971545) vcan0 300#FFB0000000000000
(1790640803.990535) vcan0 100#0B5D000000000000
(1790640803.990731) vcan0 300#FFBB000000000000
(1790640803.991990) vcan0 200#4500000000000000
(1790640803.992046) vcan0 300#FFBC000000000000
(1790640804.004544) vcan0 100#0B5A000000000000
(1790640804.004652) vcan0 300#FFC3000000000000
(1790640804.018432) vcan0 300#FFCB000000000000
(1790640804.024259) vcan0 100#0B55000000000000
(1790640804.024346) vcan0 300#FFCF000000000000
(1790640804.032879) vcan0 300#FFD4000000000000
(1790640804.042285) vcan0 100#0B51000000000000
(1790640804.042361) vcan0 200#4500000000000000
(1790640804.042373) vcan0 300#FFDA000000000000
(1790640804.042385) vcan0 400#0100000000000000
(1790640804.052010) vcan0 300#FFDF000000000000
(1790640804.061389) vcan0 100#0B4C000000000000
(1790640804.061493) vcan0 300#FFE5000000000000
(1790640804.071947) vcan0 300#FFEB000000000000
(1790640804.082544) vcan0 100#0B47000000000000
(1790640804.082709) vcan0 300#FFF2000000000000
(1790640804.092353) vcan0 200#4500000000000000
(1790640804.092464) vcan0 300#FFF7000000000000
(1790640804.102386) vcan0 100#0B42000000000000
(1790640804.102506) vcan0 300#FFFD000000000000
(1790640804.111655) vcan0 300#0002000000000000
(1790640804.152318) vcan0 100#0B36000000000000
(1790640804.153642) vcan0 200#4500000000000000
(1790640804.153747) vcan0 300#001A000000000000
(1790640804.156717) vcan0 100#0B35000000000000
(1790640804.156863) vcan0 300#001C000000000000
(1790640804.160140) vcan0 300#001F000000000000
(1790640804.161513) vcan0 100#0B34000000000000
(1790640804.161669) vcan0 300#0020000000000000
(1790640804.163142) vcan0 300#0021000000000000
(1790640804.171904) vcan0 300#0026000000000000
(1790640804.181258) vcan0 100#0B2F000000000000
(1790640804.181587) vcan0 300#002C000000000000
(1790640804.200212) vcan0 200#4500000000000000
(1790640804.200709) vcan0 300#0037000000000000
(1790640804.203245) vcan0 100#0B2A000000000000
(1790640804.203440) vcan0 300#0039000000000000
(1790640804.221250) vcan0 100#0B25000000000000
(1790640804.221387) vcan0 300#0043000000000000
(1790640804.223741) vcan0 300#0045000000000000
(1790640804.233967) vcan0 300#004B000000000000
(1790640804.260035) vcan0 100#0B1C000000000000
(1790640804.260217) vcan0 200#4500000000000000
(1790640804.260853) vcan0 300#005A000000000000
(1790640804.263075) vcan0 100#0B1B000000000000
(1790640804.263217) vcan0 300#005B000000000000
(1790640804.264819) vcan0 300#005C000000000000
(1790640804.272132) vcan0 300#0061000000000000
(1790640804.284433) vcan0 100#0B16000000000000
(1790640804.285035) vcan0 300#0067000000000000
(1790640804.293877) vcan0 200#4500000000000000
(1790640804.294014) vcan0 300#006D000000000000
(1790640804.329562) vcan0 100#0B0A000000000000
(1790640804.330184) vcan0 300#0080000000000000
(1790640804.331898) vcan0 100#0B0A000000000000
(1790640804.332100) vcan0 300#0082000000000000
(1790640804.333553) vcan0 300#0083000000000000
(1790640804.335033) vcan0 300#0083000000000000
(1790640804.343030) vcan0 100#0B07000000000000
(1790640804.343170) vcan0 200#4500000000000000
(1790640804.343190) vcan0 300#0088000000000000
(1790640804.351899) vcan0 300#008C000000000000
(1790640804.365064) vcan0 100#0B02000000000000
(1790640804.365252) vcan0 300#0093000000000000
(1790640804.386943) vcan0 100#0AFC000000000000
(1790640804.387550) vcan0 300#009F000000000000
(1790640804.388932) vcan0 300#00A0000000000000
(1790640804.392549) vcan0 200#4500000000000000
(1790640804.392690) vcan0 300#00A1000000000000
(1790640804.410211) vcan0 100#0AF6000000000000
(1790640804.410793) vcan0 300#00AA000000000000
(1790640804.412026) vcan0 300#00AB000000000000
(1790640804.435895) vcan0 100#0AF0000000000000
(1790640804.436106) vcan0 300#00B7000000000000
(1790640804.437667) vcan0 300#00B8000000000000
(1790640804.441419) vcan0 100#0AEE000000000000
(1790640804.441590) vcan0 200#4500000000000000
(1790640804.441614) vcan0 300#00B9000000000000
(1790640804.451836) vcan0 300#00BE000000000000
(1790640804.462562) vcan0 100#0AE9000000000000
(1790640804.462752) vcan0 300#00C3000000000000
(1790640804.471197) vcan0 300#00C7000000000000
(1790640804.483940) vcan0 100#0AE3000000000000
(1790640804.484149) vcan0 300#00CD000000000000
(1790640804.567791) vcan0 100#0ACE000000000000
(1790640804.569546) vcan0 200#4500000000000000
(1790640804.570142) vcan0 300#00EE000000000000
(1790640804.570299) vcan0 400#0100000000000000
(1790640804.570324) vcan0 500#0E00000000000000
(1790640804.571977) vcan0 100#0ACD000000000000
(1790640804.572686) vcan0 200#4500000000000000
(1790640804.572711) vcan0 300#00F0000000000000
(1790640804.574738) vcan0 100#0ACC000000000000
(1790640804.574905) vcan0 300#00F1000000000000
(1790640804.577414) vcan0 100#0ACB000000000000
(1790640804.577649) vcan0 300#00F2000000000000
(1790640804.580136) vcan0 300#00F3000000000000
(1790640804.581743) vcan0 100#0ACA000000000000
(1790640804.581868) vcan0 300#00F3000000000000
(1790640804.584077) vcan0 300#00F4000000000000
(1790640804.585977) vcan0 300#00F5000000000000
(1790640804.587642) vcan0 300#00F5000000000000
(1790640804.588822) vcan0 300#00F6000000000000
(1790640804.592288) vcan0 200#4500000000000000
(1790640804.592350) vcan0 300#00F7000000000000
(1790640804.601691) vcan0 100#0AC5000000000000
(1790640804.601761) vcan0 300#00FA000000000000
(1790640804.611640) vcan0 300#00FD000000000000
(1790640804.621818) vcan0 100#0AC0000000000000
(1790640804.621892) vcan0 300#0101000000000000
(1790640804.640566) vcan0 300#0106000000000000
(1790640804.644464) vcan0 100#0ABA000000000000
(1790640804.644525) vcan0 200#4500000000000000
(1790640804.644533) vcan0 300#0107000000000000
(1790640804.651568) vcan0 300#0109000000000000
(1790640804.661094) vcan0 100#0AB6000000000000
(1790640804.661169) vcan0 300#010C000000000000
(1790640804.671454) vcan0 300#010F000000000000
(1790640804.682037) vcan0 100#0AB0000000000000
(1790640804.682099) vcan0 300#0111000000000000
(1790640804.692483) vcan0 200#4500000000000000
(1790640804.692553) vcan0 300#0114000000000000
(1790640804.704763) vcan0 100#0AAA000000000000
(1790640804.704829) vcan0 300#0117000000000000
(1790640804.713235) vcan0 300#0118000000000000
(1790640804.723541) vcan0 100#0AA5000000000000
(1790640804.723612) vcan0 300#011A000000000000
(1790640804.732600) vcan0 300#011C000000000000
(1790640804.744333) vcan0 100#0AA0000000000000
(1790640804.744404) vcan0 200#4500000000000000
(1790640804.744412) vcan0 300#011E000000000000
(1790640804.754765) vcan0 300#0120000000000000
(1790640804.764942) vcan0 100#0A9A000000000000
(1790640804.765006) vcan0 300#0122000000000000
(1790640804.775453) vcan0 300#0123000000000000
(1790640804.782801) vcan0 100#0A96000000000000
(1790640804.782911) vcan0 300#0124000000000000
(1790640804.807041) vcan0 100#0A8F000000000000
(1790640804.807245) vcan0 200#4500000000000000
(1790640804.807754) vcan0 300#0127000000000000
(1790640804.809480) vcan0 300#0127000000000000
(1790640804.812239) vcan0 300#0128000000000000
(1790640804.831092) vcan0 100#0A89000000000000
(1790640804.832599) vcan0 300#0129000000000000
(1790640804.834004) vcan0 300#0129000000000000
(1790640804.841168) vcan0 100#0A86000000000000
(1790640804.841232) vcan0 200#4500000000000000
(1790640804.841254) vcan0 300#012A000000000000
(1790640804.852024) vcan0 300#012B000000000000
(1790640804.861387) vcan0 100#0A81000000000000
(1790640804.861426) vcan0 300#012B000000000000
(1790640804.871515) vcan0 300#012B000000000000
(1790640804.881482) vcan0 100#0A7C000000000000
(1790640804.881666) vcan0 300#012B000000000000
(1790640804.891307) vcan0 200#4500000000000000
(1790640804.891381) vcan0 300#012B000000000000
(1790640804.901545) vcan0 100#0A76000000000000
(1790640804.901572) vcan0 300#012B000000000000
(1790640804.911573) vcan0 300#012B000000000000
(1790640804.922059) vcan0 100#0A71000000000000
(1790640804.922091) vcan0 300#012B000000000000
(1790640804.932005) vcan0 300#012B000000000000
(1790640804.943060) vcan0 100#0A6B000000000000
(1790640804.943158) vcan0 200#4500000000000000
(1790640804.943194) vcan0 300#012A000000000000
(1790640804.952683) vcan0 300#0129000000000000
(1790640804.962247) vcan0 100#0A66000000000000
(1790640804.962302) vcan0 300#0129000000000000
(1790640804.971785) vcan0 300#0128000000000000
(1790640804.981783) vcan0 100#0A61000000000000
(1790640804.981822) vcan0 300#0127000000000000
(1790640804.991914) vcan0 200#4500000000000000
(1790640804.991993) vcan0 300#0126000000000000
(1790640805.001970) vcan0 100#0A5B000000000000
(1790640805.002048) vcan0 300#0124000000000000
(1790640805.012104) vcan0 300#0123000000000000
(1790640805.021971) vcan0 100#0A56000000000000
(1790640805.022002) vcan0 300#0122000000000000
(1790640805.031525) vcan0 300#0120000000000000
(1790640805.041170) vcan0 100#0A51000000000000
(1790640805.041199) vcan0 200#4500000000000000
(1790640805.041211) vcan0 300#011E000000000000
(1790640805.041474) vcan0 400#0200000000000000
(1790640805.052651) vcan0 300#011C000000000000
(1790640805.061485) vcan0 100#0A4B000000000000
(1790640805.061514) vcan0 300#011B000000000000
(1790640805.072193) vcan0 300#0118000000000000
(1790640805.081265) vcan0 100#0A46000000000000
(1790640805.081294) vcan0 300#0116000000000000
(1790640805.092509) vcan0 200#4500000000000000
(1790640805.092582) vcan0 300#0114000000000000
(1790640805.108058) vcan0 100#0A3E000000000000
(1790640805.108099) vcan0 300#0110000000000000
(1790640805.114811) vcan0 300#010E000000000000
(1790640805.132609) vcan0 100#0A38000000000000
(1790640805.132682) vcan0 300#010A000000000000
(1790640805.175669) vcan0 100#0A2C000000000000
(1790640805.175846) vcan0 200#4500000000000000
(1790640805.175902) vcan0 300#00FD000000000000
(1790640805.207280) vcan0 100#0A23000000000000
(1790640805.207350) vcan0 200#4500000000000000
(1790640805.207364) vcan0 300#00F2000000000000
(1790640805.230998) vcan0 100#0A1D000000000000
(1790640805.231057) vcan0 300#00E9000000000000
(1790640805.254319) vcan0 100#0A16000000000000
(1790640805.254374) vcan0 200#4500000000000000
(1790640805.254386) vcan0 300#00E0000000000000
(1790640805.256713) vcan0 100#0A15000000000000
(1790640805.256743) vcan0 300#00DF000000000000
(1790640805.274439) vcan0 100#0A11000000000000
(1790640805.274502) vcan0 300#00D8000000000000
(1790640805.276508) vcan0 100#0A10000000000000
(1790640805.276553) vcan0 300#00D7000000000000
(1790640805.277735) vcan0 300#00D7000000000000
(1790640805.289123) vcan0 100#0A0D000000000000
(1790640805.289178) vcan0 300#00D2000000000000
(1790640805.297142) vcan0 200#4500000000000000
(1790640805.297217) vcan0 300#00CF000000000000
(1790640805.298705) vcan0 300#00CE000000000000
(1790640805.300261) vcan0 300#00CD000000000000
(1790640805.302799) vcan0 100#0A09000000000000
(1790640805.302860) vcan0 300#00CC000000000000
(1790640805.304654) vcan0 300#00CB000000000000
(1790640805.306776) vcan0 300#00CA000000000000
(1790640805.309121) vcan0 300#00C9000000000000
(1790640805.380057) vcan0 100#09F3000000000000
(1790640805.380243) vcan0 200#4500000000000000
(1790640805.380283) vcan0 300#00A8000000000000
(1790640805.441649) vcan0 100#09E2000000000000
(1790640805.441889) vcan0 200#4500000000000000
(1790640805.441921) vcan0 300#0088000000000000
(1790640805.445663) vcan0 100#09E1000000000000
(1790640805.445809) vcan0 200#4500000000000000
(1790640805.445830) vcan0 300#0086000000000000
(1790640805.448076) vcan0 100#09E0000000000000
(1790640805.448201) vcan0 300#0085000000000000
(1790640805.450814) vcan0 100#09DF000000000000
(1790640805.450977) vcan0 300#0083000000000000
(1790640805.453020) vcan0 100#09DF000000000000
(1790640805.453493) vcan0 300#0082000000000000
(1790640805.454777) vcan0 100#09DE000000000000
(1790640805.454894) vcan0 300#0081000000000000
(1790640805.456535) vcan0 300#0080000000000000
(1790640805.459360) vcan0 300#007F000000000000
(1790640805.461013) vcan0 100#09DD000000000000
(1790640805.461145) vcan0 300#007E000000000000
(1790640805.464158) vcan0 300#007C000000000000
(1790640805.465885) vcan0 300#007B000000000000
(1790640805.467234) vcan0 300#007A000000000000
(1790640805.468608) vcan0 300#007A000000000000
(1790640805.471430) vcan0 300#0078000000000000
(1790640805.472860) vcan0 300#0077000000000000
(1790640805.474772) vcan0 300#0076000000000000
(1790640805.477330) vcan0 300#0075000000000000
(1790640805.478997) vcan0 300#0074000000000000
(1790640805.482340) vcan0 100#09D7000000000000
(1790640805.482456) vcan0 300#0072000000000000
(1790640805.492632) vcan0 200#4500000000000000
(1790640805.492796) vcan0 300#006C000000000000
(1790640805.509327) vcan0 100#09CF000000000000
(1790640805.509544) vcan0 300#0063000000000000
(1790640805.511286) vcan0 300#0062000000000000
(1790640805.521155) vcan0 100#09CC000000000000
(1790640805.521367) vcan0 300#005C000000000000
(1790640805.545217) vcan0 100#09C5000000000000
(1790640805.545368) vcan0 200#4500000000000000
(1790640805.545392) vcan0 300#004E000000000000
(1790640805.545418) vcan0 400#0200000000000000
(1790640805.545436) vcan0 500#0F00000000000000
(1790640805.545451) vcan0 7DF#0201050000000000
(1790640805.547154) vcan0 300#004D000000000000
(1790640805.557298) vcan0 300#0047000000000000
(1790640805.562275) vcan0 100#09C0000000000000
(1790640805.562481) vcan0 300#0044000000000000
(1790640805.582721) vcan0 100#09BA000000000000
(1790640805.582975) vcan0 300#0039000000000000
(1790640805.584426) vcan0 300#0037000000000000
(1790640805.591410) vcan0 200#4500000000000000
(1790640805.591598) vcan0 300#0033000000000000
(1790640805.603426) vcan0 100#09B4000000000000
(1790640805.603587) vcan0 300#002C000000000000
(1790640805.614466) vcan0 300#0026000000000000
(1790640805.625224) vcan0 100#09AE000000000000
(1790640805.625402) vcan0 300#001F000000000000
(1790640805.631437) vcan0 300#001C000000000000
(1790640805.641253) vcan0 100#09AA000000000000
(1790640805.641425) vcan0 200#4500000000000000
(1790640805.641449) vcan0 300#0016000000000000
(1790640805.691628) vcan0 100#099B000000000000
(1790640805.691863) vcan0 200#4500000000000000
(1790640805.691894) vcan0 300#FFF8000000000000
(1790640805.693600) vcan0 100#099B000000000000
(1790640805.693778) vcan0 300#FFF7000000000000
(1790640805.696511) vcan0 300#FFF6000000000000
(1790640805.700646) vcan0 300#FFF3000000000000
(1790640805.702612) vcan0 100#0998000000000000
(1790640805.702748) vcan0 300#FFF2000000000000
(1790640805.705487) vcan0 300#FFF0000000000000
(1790640805.718459) vcan0 300#FFE8000000000000
(1790640805.724767) vcan0 100#0992000000000000
(1790640805.724982) vcan0 300#FFE5000000000000
(1790640805.739768) vcan0 300#FFDC000000000000
(1790640805.748235) vcan0 100#098B000000000000
(1790640805.748402) vcan0 200#4500000000000000
(1790640805.748423) vcan0 300#FFD7000000000000
(1790640805.756648) vcan0 300#FFD2000000000000
(1790640805.761237) vcan0 100#0987000000000000
(1790640805.761360) vcan0 300#FFCF000000000000
(1790640805.783898) vcan0 100#0981000000000000
(1790640805.784066) vcan0 300#FFC2000000000000
(1790640805.788662) vcan0 300#FFBF000000000000
(1790640805.792189) vcan0 200#4500000000000000
(1790640805.792333) vcan0 300#FFBD000000000000
(1790640805.802658) vcan0 100#097B000000000000
(1790640805.802776) vcan0 300#FFB7000000000000
(1790640805.817438) vcan0 300#FFAE000000000000
(1790640805.823503) vcan0 100#0976000000000000
(1790640805.824124) vcan0 300#FFAB000000000000
(1790640805.831468) vcan0 300#FFA6000000000000
(1790640805.845264) vcan0 100#096F000000000000
(1790640805.845504) vcan0 200#4500000000000000
(1790640805.845540) vcan0 300#FF9E000000000000
(1790640805.853034) vcan0 300#FF9A000000000000
(1790640805.861370) vcan0 100#096A000000000000
(1790640805.861496) vcan0 300#FF95000000000000
(1790640805.871669) vcan0 300#FF8F000000000000
(1790640805.884337) vcan0 100#0964000000000000
(1790640805.884532) vcan0 300#FF88000000000000
(1790640805.898210) vcan0 200#4500000000000000
(1790640805.898442) vcan0 300#FF81000000000000
(1790640805.901571) vcan0 100#095F000000000000
(1790640805.901745) vcan0 300#FF7F000000000000
(1790640805.914564) vcan0 300#FF78000000000000
(1790640805.936571) vcan0 100#0955000000000000
(1790640805.936842) vcan0 300#FF6C000000000000
(1790640805.938787) vcan0 300#FF6B000000000000
(1790640805.942392) vcan0 100#0953000000000000
(1790640805.942588) vcan0 200#4500000000000000
(1790640805.942620) vcan0 300#FF69000000000000
(1790640805.951171) vcan0 300#FF65000000000000
(1790640805.971303) vcan0 100#094B000000000000
(1790640805.971546) vcan0 300#FF5B000000000000
(1790640805.973418) vcan0 300#FF59000000000000
(1790640805.983763) vcan0 100#0947000000000000
(1790640805.983916) vcan0 300#FF54000000000000
(1790640805.991372) vcan0 200#4500000000000000
(1790640805.991556) vcan0 300#FF51000000000000
(1790640806.002862) vcan0 100#0942000000000000
(1790640806.003102) vcan0 300#FF4B000000000000
(1790640806.020303) vcan0 300#FF43000000000000
(1790640806.024666) vcan0 100#093B000000000000
(1790640806.024843) vcan0 300#FF41000000000000
(1790640806.031208) vcan0 300#FF3E000000000000
(1790640806.042883) vcan0 100#0936000000000000
(1790640806.043089) vcan0 200#4500000000000000
(1790640806.043115) vcan0 300#FF39000000000000
(1790640806.043140) vcan0 400#0000000000000000
(1790640806.052608) vcan0 300#FF34000000000000
(1790640806.061265) vcan0 100#0930000000000000
(1790640806.061373) vcan0 300#FF30000000000000
(1790640806.071910) vcan0 300#FF2C000000000000
(1790640806.081246) vcan0 100#092B000000000000
(1790640806.081296) vcan0 300#FF28000000000000
(1790640806.092586) vcan0 200#4500000000000000
(1790640806.092726) vcan0 300#FF24000000000000
(1790640806.101368) vcan0 100#0925000000000000
(1790640806.101461) vcan0 300#FF20000000000000
(1790640806.111791) vcan0 300#FF1C000000000000
(1790640806.121667) vcan0 100#091F000000000000
(1790640806.121716) vcan0 300#FF18000000000000
(1790640806.136223) vcan0 300#FF13000000000000
(1790640806.145141) vcan0 100#0918000000000000
(1790640806.145292) vcan0 200#4500000000000000
(1790640806.145349) vcan0 300#FF0F000000000000
(1790640806.151719) vcan0 300#FF0D000000000000
(1790640806.168616) vcan0 100#0911000000000000
(1790640806.168684) vcan0 300#FF07000000000000
(1790640806.172686) vcan0 300#FF06000000000000
(1790640806.183696) vcan0 100#090D000000000000
(1790640806.183826) vcan0 300#FF02000000000000
(1790640806.194926) vcan0 200#4500000000000000
(1790640806.195061) vcan0 300#FEFF000000000000
(1790640806.201349) vcan0 100#0908000000000000
(1790640806.201459) vcan0 300#FEFD000000000000
(1790640806.221234) vcan0 100#0902000000000000
(1790640806.221379) vcan0 300#FEF7000000000000
(1790640806.223747) vcan0 300#FEF6000000000000
(1790640806.231354) vcan0 300#FEF4000000000000
(1790640806.241757) vcan0 100#08FC000000000000
(1790640806.241813) vcan0 200#4500000000000000
(1790640806.241836) vcan0 300#FEF2000000000000
(1790640806.262120) vcan0 100#08F6000000000000
(1790640806.262272) vcan0 300#FEED000000000000
(1790640806.264985) vcan0 300#FEEC000000000000
(1790640806.273272) vcan0 300#FEEA000000000000
(1790640806.285833) vcan0 100#08EF000000000000
(1790640806.285978) vcan0 300#FEE7000000000000
(1790640806.301174) vcan0 100#08EA000000000000
(1790640806.301306) vcan0 200#4500000000000000
(1790640806.301353) vcan0 300#FEE4000000000000
(1790640806.303734) vcan0 300#FEE4000000000000
(1790640806.311434) vcan0 300#FEE2000000000000
(1790640806.322879) vcan0 100#08E4000000000000
(1790640806.322945) vcan0 300#FEE0000000000000
(1790640806.331361) vcan0 300#FEDF000000000000
(1790640806.346570) vcan0 100#08DD000000000000
(1790640806.346711) vcan0 200#4500000000000000
(1790640806.346765) vcan0 300#FEDD000000000000
(1790640806.352516) vcan0 300#FEDC000000000000
(1790640806.361334) vcan0 100#08D8000000000000
(1790640806.361450) vcan0 300#FEDB000000000000
(1790640806.376591) vcan0 300#FED9000000000000
(1790640806.382931) vcan0 100#08D2000000000000
(1790640806.383074) vcan0 300#FED8000000000000
(1790640806.404293) vcan0 100#08CC000000000000
(1790640806.404421) vcan0 200#4500000000000000
(1790640806.404467) vcan0 300#FED7000000000000
(1790640806.422428) vcan0 100#08C6000000000000
(1790640806.422531) vcan0 300#FED6000000000000
(1790640806.424445) vcan0 300#FED5000000000000
(1790640806.426300) vcan0 300#FED5000000000000
(1790640806.434674) vcan0 300#FED5000000000000
(1790640806.446401) vcan0 100#08BF000000000000
(1790640806.446446) vcan0 200#4500000000000000
(1790640806.446464) vcan0 300#FED5000000000000
(1790640806.451232) vcan0 300#FED5000000000000
(1790640806.461954) vcan0 100#08BB000000000000
(1790640806.462044) vcan0 300#FED5000000000000
(1790640806.475087) vcan0 300#FED5000000000000
(1790640806.485431) vcan0 100#08B4000000000000
(1790640806.485478) vcan0 300#FED5000000000000
(1790640806.491572) vcan0 200#4500000000000000
(1790640806.491657) vcan0 300#FED5000000000000
(1790640806.511217) vcan0 100#08AC000000000000
(1790640806.511366) vcan0 300#FED6000000000000
(1790640806.524982) vcan0 100#08A8000000000000
(1790640806.525090) vcan0 300#FED7000000000000
(1790640806.526540) vcan0 300#FED7000000000000
(1790640806.534762) vcan0 300#FED8000000000000
(1790640806.541174) vcan0 100#08A3000000000000
(1790640806.541253) vcan0 200#4500000000000000
(1790640806.541283) vcan0 300#FED8000000000000
(1790640806.541313) vcan0 400#0000000000000000
(1790640806.541335) vcan0 500#1000000000000000
(1790640806.557629) vcan0 300#FEDA000000000000
(1790640806.562915) vcan0 100#089D000000000000
(1790640806.562954) vcan0 300#FEDA000000000000
(1790640806.580563) vcan0 300#FEDD000000000000
(1790640806.581962) vcan0 100#0897000000000000
(1790640806.582090) vcan0 300#FEDD000000000000
(1790640806.593269) vcan0 200#4500000000000000
(1790640806.593327) vcan0 300#FEDF000000000000
(1790640806.601386) vcan0 100#0891000000000000
(1790640806.601523) vcan0 300#FEE0000000000000
(1790640806.614165) vcan0 300#FEE2000000000000
(1790640806.621789) vcan0 100#088B000000000000
(1790640806.621848) vcan0 300#FEE3000000000000
(1790640806.631405) vcan0 300#FEE5000000000000
(1790640806.642219) vcan0 100#0885000000000000
(1790640806.642312) vcan0 200#4500000000000000
(1790640806.642337) vcan0 300#FEE7000000000000
(1790640806.653411) vcan0 300#FEEA000000000000
(1790640806.661713) vcan0 100#087F000000000000
(1790640806.661852) vcan0 300#FEEC000000000000
(1790640806.672174) vcan0 300#FEEE000000000000
(1790640806.689132) vcan0 100#0877000000000000
(1790640806.689206) vcan0 300#FEF2000000000000
(1790640806.697513) vcan0 200#4500000000000000
(1790640806.697660) vcan0 300#FEF5000000000000
(1790640806.702629) vcan0 100#0873000000000000
(1790640806.702746) vcan0 300#FEF6000000000000
(1790640806.713410) vcan0 300#FEF9000000000000
(1790640806.723830) vcan0 100#086D000000000000
(1790640806.723897) vcan0 300#FEFC000000000000
(1790640806.731794) vcan0 300#FEFF000000000000
(1790640806.742916) vcan0 100#0867000000000000
(1790640806.742965) vcan0 200#4500000000000000
(1790640806.742985) vcan0 300#FF02000000000000
(1790640806.758476) vcan0 300#FF07000000000000
(1790640806.763067) vcan0 100#0861000000000000
(1790640806.763177) vcan0 300#FF09000000000000
(1790640806.787547) vcan0 100#085A000000000000
(1790640806.787717) vcan0 300#FF11000000000000
(1790640806.803182) vcan0 100#0855000000000000
(1790640806.803331) vcan0 200#4500000000000000
(1790640806.803372) vcan0 300#FF17000000000000
(1790640806.815424) vcan0 300#FF1C000000000000
(1790640806.825460) vcan0 100#084E000000000000
(1790640806.825527) vcan0 300#FF20000000000000
(1790640806.827360) vcan0 300#FF20000000000000
(1790640806.833678) vcan0 300#FF23000000000000
(1790640806.835126) vcan0 300#FF24000000000000
(1790640806.842785) vcan0 100#0849000000000000
(1790640806.842948) vcan0 200#4500000000000000
(1790640806.842999) vcan0 300#FF27000000000000
(1790640806.857183) vcan0 300#FF2D000000000000
(1790640806.861497) vcan0 100#0844000000000000
(1790640806.861628) vcan0 300#FF2F000000000000
(1790640806.871513) vcan0 300#FF33000000000000
(1790640806.881525) vcan0 100#083E000000000000
(1790640806.881565) vcan0 300#FF37000000000000
(1790640806.891403) vcan0 200#4500000000000000
(1790640806.891499) vcan0 300#FF3C000000000000
(1790640806.901633) vcan0 100#0838000000000000
(1790640806.901728) vcan0 300#FF40000000000000
(1790640806.915365) vcan0 300#FF47000000000000
(1790640806.927218) vcan0 100#0830000000000000
(1790640806.927366) vcan0 300#FF4C000000000000
(1790640806.937644) vcan0 300#FF52000000000000
(1790640806.943525) vcan0 100#082B000000000000
(1790640806.943649) vcan0 200#4500000000000000
(1790640806.943697) vcan0 300#FF54000000000000
(1790640806.951483) vcan0 300#FF58000000000000
(1790640806.961221) vcan0 100#0826000000000000
(1790640806.961262) vcan0 300#FF5D000000000000
(1790640806.971474) vcan0 300#FF62000000000000
(1790640807.022711) vcan0 100#0813000000000000
(1790640807.025641) vcan0 200#4500000000000000
(1790640807.025740) vcan0 300#FF7D000000000000
(1790640807.027145) vcan0 100#0812000000000000
(1790640807.027279) vcan0 300#FF80000000000000
(1790640807.030107) vcan0 100#0811000000000000
(1790640807.030197) vcan0 300#FF81000000000000
(1790640807.031530) vcan0 300#FF82000000000000
(1790640807.034101) vcan0 300#FF83000000000000
(1790640807.036484) vcan0 300#FF85000000000000
(1790640807.042981) vcan0 100#080D000000000000
(1790640807.043312) vcan0 200#4500000000000000
(1790640807.043353) vcan0 300#FF88000000000000
(1790640807.043489) vcan0 400#0400000000000000
(1790640807.051801) vcan0 300#FF8D000000000000
(1790640807.061092) vcan0 100#0808000000000000
(1790640807.061160) vcan0 300#FF92000000000000
(1790640807.071460) vcan0 300#FF98000000000000
(1790640807.082068) vcan0 100#0802000000000000
(1790640807.082147) vcan0 300#FF9E000000000000
(1790640807.092029) vcan0 200#4500000000000000
(1790640807.092121) vcan0 300#FFA4000000000000
(1790640807.101460) vcan0 100#07FC000000000000
(1790640807.101559) vcan0 300#FFA9000000000000
(1790640807.111665) vcan0 300#FFAF000000000000
(1790640807.121254) vcan0 100#07F6000000000000
(1790640807.121330) vcan0 300#FFB5000000000000
(1790640807.133126) vcan0 300#FFBC000000000000
(1790640807.141958) vcan0 100#07F0000000000000
(1790640807.142042) vcan0 200#4500000000000000
(1790640807.142071) vcan0 300#FFC1000000000000
(1790640807.151873) vcan0 300#FFC7000000000000
(1790640807.161466) vcan0 100#07EA000000000000
(1790640807.161537) vcan0 300#FFCC000000000000
(1790640807.181736) vcan0 100#07E4000000000000
(1790640807.181896) vcan0 300#FFD8000000000000
(1790640807.184181) vcan0 300#FFDA000000000000
(1790640807.196092) vcan0 200#4500000000000000
(1790640807.196240) vcan0 300#FFE1000000000000
(1790640807.205265) vcan0 100#07DD000000000000
(1790640807.205405) vcan0 300#FFE6000000000000
(1790640807.211492) vcan0 300#FFEA000000000000
(1790640807.222189) vcan0 100#07D8000000000000
(1790640807.222233) vcan0 300#FFF0000000000000
(1790640807.235916) vcan0 300#FFF9000000000000
(1790640807.246295) vcan0 100#07D0000000000000
(1790640807.246366) vcan0 200#4500000000000000
(1790640807.246399) vcan0 300#FFFF000000000000
(1790640807.252816) vcan0 300#0001000000000000
(1790640807.263714) vcan0 100#07CB000000000000
(1790640807.263842) vcan0 300#0008000000000000
(1790640807.271880) vcan0 300#000D000000000000
(1790640807.282939) vcan0 100#07C5000000000000
(1790640807.282975) vcan0 300#0014000000000000
(1790640807.291376) vcan0 200#4500000000000000
(1790640807.291409) vcan0 300#0019000000000000
(1790640807.301354) vcan0 100#07C0000000000000
(1790640807.301394) vcan0 300#001F000000000000
(1790640807.323162) vcan0 100#07B9000000000000
(1790640807.323212) vcan0 300#002C000000000000
(1790640807.339570) vcan0 300#0036000000000000
(1790640807.352098) vcan0 100#07B1000000000000
(1790640807.352132) vcan0 200#4500000000000000
(1790640807.352143) vcan0 300#003D000000000000
(1790640807.364807) vcan0 100#07AD000000000000
(1790640807.364839) vcan0 300#0044000000000000
(1790640807.366370) vcan0 300#0045000000000000
(1790640807.367477) vcan0 300#0046000000000000
(1790640807.373497) vcan0 300#0049000000000000
(1790640807.381597) vcan0 100#07A8000000000000
(1790640807.381641) vcan0 300#004E000000000000
(1790640807.396643) vcan0 200#4500000000000000
(1790640807.396774) vcan0 300#0057000000000000
(1790640807.402378) vcan0 100#07A1000000000000
(1790640807.402484) vcan0 300#005A000000000000
(1790640807.412535) vcan0 300#0060000000000000
(1790640807.425321) vcan0 100#079B000000000000
(1790640807.425380) vcan0 300#0067000000000000
(1790640807.432626) vcan0 300#006B000000000000
(1790640807.452828) vcan0 100#0793000000000000
(1790640807.453260) vcan0 200#4500000000000000
(1790640807.453310) vcan0 300#0076000000000000
(1790640807.454798) vcan0 300#0078000000000000
(1790640807.461431) vcan0 100#0790000000000000
(1790640807.461526) vcan0 300#007B000000000000
(1790640807.471828) vcan0 300#0081000000000000
(1790640807.481531) vcan0 100#078A000000000000
(1790640807.481599) vcan0 300#0086000000000000
(1790640807.492102) vcan0 200#4500000000000000
(1790640807.492260) vcan0 300#008C000000000000
(1790640807.602519) vcan0 100#0766000000000000
(1790640807.602765) vcan0 200#4500000000000000
(1790640807.602816) vcan0 300#00C2000000000000
(1790640807.602868) vcan0 400#0000000000000000
(1790640807.602905) vcan0 500#1100000000000000
(1790640807.602945) vcan0 7DF#02010D0000000000
(1790640807.604704) vcan0 100#0765000000000000
(1790640807.604806) vcan0 200#4500000000000000
(1790640807.605129) vcan0 300#00C3000000000000
(1790640807.606676) vcan0 100#0764000000000000
(1790640807.606759) vcan0 300#00C4000000000000
(1790640807.608788) vcan0 100#0764000000000000
(1790640807.608888) vcan0 300#00C5000000000000
(1790640807.610815) vcan0 100#0763000000000000
(1790640807.610922) vcan0 300#00C6000000000000
(1790640807.612467) vcan0 100#0763000000000000
(1790640807.612518) vcan0 300#00C7000000000000
(1790640807.614422) vcan0 300#00C8000000000000
(1790640807.616067) vcan0 300#00C8000000000000
(1790640807.625036) vcan0 100#075F000000000000
(1790640807.625166) vcan0 300#00CC000000000000
(1790640807.627328) vcan0 300#00CD000000000000
(1790640807.629337) vcan0 300#00CE000000000000
(1790640807.632223) vcan0 300#00D0000000000000
(1790640807.634768) vcan0 300#00D1000000000000
(1790640807.637024) vcan0 300#00D2000000000000
(1790640807.642343) vcan0 100#075A000000000000
(1790640807.642393) vcan0 200#4500000000000000
(1790640807.642416) vcan0 300#00D4000000000000
(1790640807.657735) vcan0 300#00DA000000000000
(1790640807.662034) vcan0 100#0754000000000000
(1790640807.662169) vcan0 300#00DC000000000000
(1790640807.679523) vcan0 300#00E3000000000000
(1790640807.694951) vcan0 100#074A000000000000
(1790640807.695023) vcan0 200#4500000000000000
(1790640807.695053) vcan0 300#00E9000000000000
(1790640807.696819) vcan0 300#00EA000000000000
(1790640807.705897) vcan0 100#0747000000000000
(1790640807.706102) vcan0 300#00EC000000000000
(1790640807.720115) vcan0 300#00F2000000000000
(1790640807.724983) vcan0 100#0741000000000000
(1790640807.725030) vcan0 300#00F4000000000000
(1790640807.731818) vcan0 300#00F6000000000000
(1790640807.753441) vcan0 100#0738000000000000
(1790640807.753496) vcan0 200#4500000000000000
(1790640807.753517) vcan0 300#00FD000000000000
(1790640807.755142) vcan0 300#00FE000000000000
(1790640807.762800) vcan0 100#0736000000000000
(1790640807.762929) vcan0 300#0100000000000000
(1790640807.861675) vcan0 100#0719000000000000
(1790640807.862887) vcan0 200#4500000000000000
(1790640807.862971) vcan0 300#0119000000000000
(1790640807.864385) vcan0 100#0717000000000000
(1790640807.864442) vcan0 200#4500000000000000
(1790640807.864461) vcan0 300#011A000000000000
(1790640807.866433) vcan0 100#0717000000000000
(1790640807.866488) vcan0 300#011B000000000000
(1790640807.868807) vcan0 100#0716000000000000
(1790640807.868935) vcan0 300#011B000000000000
(1790640807.872543) vcan0 100#0715000000000000
(1790640807.872613) vcan0 300#011C000000000000
(1790640807.875898) vcan0 300#011D000000000000
(1790640807.889210) vcan0 100#0710000000000000
(1790640807.889285) vcan0 300#011F000000000000
(1790640807.891695) vcan0 200#4500000000000000
(1790640807.891758) vcan0 300#011F000000000000
(1790640807.899405) vcan0 300#0121000000000000
(1790640807.906889) vcan0 100#070B000000000000
(1790640807.906968) vcan0 300#0122000000000000
(1790640807.908675) vcan0 300#0122000000000000
(1790640807.911703) vcan0 300#0123000000000000
(1790640807.914239) vcan0 300#0123000000000000
(1790640807.930006) vcan0 100#0704000000000000
(1790640807.930112) vcan0 300#0125000000000000
(1790640807.931761) vcan0 300#0125000000000000
(1790640807.941551) vcan0 100#0700000000000000
(1790640807.941660) vcan0 200#4500000000000000
(1790640807.941693) vcan0 300#0126000000000000
(1790640807.943281) vcan0 300#0127000000000000
(1790640807.949218) vcan0 300#0127000000000000
(1790640807.951647) vcan0 300#0127000000000000
(1790640807.964028) vcan0 100#06FA000000000000
(1790640807.964115) vcan0 300#0129000000000000
(1790640807.974976) vcan0 300#0129000000000000
(1790640807.982567) vcan0 100#06F4000000000000
(1790640807.982665) vcan0 300#012A000000000000
(1790640808.002214) vcan0 100#06EE000000000000
(1790640808.002331) vcan0 200#4500000000000000
(1790640808.002364) vcan0 300#012B000000000000
(1790640808.011546) vcan0 300#012B000000000000
(1790640808.018878) vcan0 300#012B000000000000
(1790640808.023355) vcan0 100#06E8000000000000
(1790640808.023487) vcan0 300#012B000000000000
(1790640808.031820) vcan0 300#012B000000000000
(1790640808.041114) vcan0 100#06E3000000000000
(1790640808.041153) vcan0 200#4500000000000000
(1790640808.041169) vcan0 300#012B000000000000
(1790640808.041189) vcan0 400#0000000000000000
(1790640808.051805) vcan0 300#012B000000000000
(1790640808.061751) vcan0 100#06DD000000000000
(1790640808.061833) vcan0 300#012B000000000000
(1790640808.072800) vcan0 300#012B000000000000
(1790640808.081700) vcan0 100#06D7000000000000
(1790640808.081746) vcan0 300#012A000000000000
(1790640808.091452) vcan0 200#4500000000000000
(1790640808.091727) vcan0 300#012A000000000000
(1790640808.101819) vcan0 100#06D1000000000000
(1790640808.101940) vcan0 300#0129000000000000
(1790640808.112566) vcan0 300#0128000000000000
(1790640808.121273) vcan0 100#06CB000000000000
(1790640808.121371) vcan0 300#0127000000000000
(1790640808.134003) vcan0 300#0126000000000000
(1790640808.144592) vcan0 100#06C4000000000000
(1790640808.144681) vcan0 200#4500000000000000
(1790640808.144705) vcan0 300#0124000000000000
(1790640808.152056) vcan0 300#0123000000000000
(1790640808.176621) vcan0 100#06BB000000000000
(1790640808.176682) vcan0 300#011F000000000000
(1790640808.178516) vcan0 300#011F000000000000
(1790640808.182049) vcan0 100#06B9000000000000
(1790640808.182216) vcan0 300#011F000000000000
(1790640808.205504) vcan0 100#06B2000000000000
(1790640808.205617) vcan0 200#4500000000000000
(1790640808.205648) vcan0 300#011A000000000000
(1790640808.207518) vcan0 300#011A000000000000
(1790640808.216868) vcan0 300#0118000000000000
(1790640808.222189) vcan0 100#06AD000000000000
(1790640808.222359) vcan0 300#0117000000000000
(1790640808.231361) vcan0 300#0115000000000000
(1790640808.246104) vcan0 100#06A6000000000000
(1790640808.246140) vcan0 200#4500000000000000
(1790640808.246155) vcan0 300#0111000000000000
(1790640808.253910) vcan0 300#010F000000000000
(1790640808.262152) vcan0 100#06A2000000000000
(1790640808.262203) vcan0 300#010D000000000000
(1790640808.271984) vcan0 300#010A000000000000
(1790640808.282257) vcan0 100#069C000000000000
(1790640808.282316) vcan0 300#0107000000000000
(1790640808.418589) vcan0 100#0674000000000000
(1790640808.419405) vcan0 200#4500000000000000
(1790640808.419489) vcan0 300#00D7000000000000
(1790640808.421317) vcan0 100#0673000000000000
(1790640808.421910) vcan0 200#4500000000000000
(1790640808.421941) vcan0 300#00D6000000000000
(1790640808.423939) vcan0 100#0672000000000000
(1790640808.423982) vcan0 200#4500000000000000
(1790640808.424001) vcan0 300#00D5000000000000
(1790640808.425741) vcan0 100#0672000000000000
(1790640808.425837) vcan0 300#00D4000000000000
(1790640808.429129) vcan0 100#0671000000000000
(1790640808.429255) vcan0 300#00D3000000000000
(1790640808.430703) vcan0 100#0670000000000000
(1790640808.430816) vcan0 300#00D2000000000000
(1790640808.432587) vcan0 100#0670000000000000
(1790640808.432908) vcan0 300#00D1000000000000
(1790640808.439996) vcan0 300#00CE000000000000
(1790640808.445967) vcan0 100#066C000000000000
(1790640808.446095) vcan0 200#4500000000000000
(1790640808.446147) vcan0 300#00CB000000000000
(1790640808.447872) vcan0 300#00CB000000000000
(1790640808.450742) vcan0 300#00C9000000000000
(1790640808.452950) vcan0 300#00C8000000000000
(1790640808.455280) vcan0 300#00C7000000000000
(1790640808.457151) vcan0 300#00C7000000000000
(1790640808.458783) vcan0 300#00C6000000000000
(1790640808.461954) vcan0 100#0667000000000000
(1790640808.462052) vcan0 300#00C4000000000000
(1790640808.474511) vcan0 300#00BF000000000000
(1790640808.477063) vcan0 300#00BE000000000000
(1790640808.485828) vcan0 100#0660000000000000
(1790640808.486159) vcan0 300#00B9000000000000
(1790640808.488476) vcan0 300#00B8000000000000
(1790640808.492570) vcan0 200#4500000000000000
(1790640808.492706) vcan0 300#00B6000000000000
(1790640808.501407) vcan0 100#065C000000000000
(1790640808.501581) vcan0 300#00B2000000000000
(1790640808.513248) vcan0 300#00AD000000000000
(1790640808.525825) vcan0 100#0655000000000000
(1790640808.525995) vcan0 300#00A6000000000000
(1790640808.535070) vcan0 300#00A1000000000000
(1790640808.541898) vcan0 100#0650000000000000
(1790640808.542231) vcan0 200#4500000000000000
(1790640808.542284) vcan0 300#009E000000000000
(1790640808.542323) vcan0 400#0100000000000000
(1790640808.542351) vcan0 500#1200000000000000
(1790640808.552205) vcan0 300#0099000000000000
(1790640808.562999) vcan0 100#064A000000000000
(1790640808.563040) vcan0 300#0093000000000000
(1790640808.573175) vcan0 300#008E000000000000
(1790640808.581740) vcan0 100#0644000000000000
(1790640808.581825) vcan0 300#0089000000000000
(1790640808.592342) vcan0 200#4500000000000000
(1790640808.592477) vcan0 300#0083000000000000
(1790640808.604941) vcan0 100#063E000000000000
(1790640808.605017) vcan0 300#007C000000000000
(1790640808.612530) vcan0 300#0078000000000000
(1790640808.626052) vcan0 100#0638000000000000
(1790640808.626112) vcan0 300#0071000000000000
(1790640808.632114) vcan0 300#006E000000000000
(1790640808.641221) vcan0 100#0633000000000000
(1790640808.641291) vcan0 200#4500000000000000
(1790640808.641325) vcan0 300#0068000000000000
(1790640808.652065) vcan0 300#0062000000000000
(1790640808.662675) vcan0 100#062D000000000000
(1790640808.662863) vcan0 300#005C000000000000
(1790640808.672800) vcan0 300#0057000000000000
(1790640808.681816) vcan0 100#0628000000000000
(1790640808.681922) vcan0 300#0051000000000000
(1790640808.692449) vcan0 200#4500000000000000
(1790640808.692535) vcan0 300#004B000000000000
(1790640808.704005) vcan0 100#0621000000000000
(1790640808.704233) vcan0 300#0044000000000000
(1790640808.711383) vcan0 300#0040000000000000
(1790640808.847509) vcan0 100#05F8000000000000
(1790640808.847644) vcan0 200#4500000000000000
(1790640808.847701) vcan0 300#FFF0000000000000
(1790640808.849588) vcan0 100#05F7000000000000
(1790640808.850297) vcan0 200#4500000000000000
(1790640808.851008) vcan0 300#FFEF000000000000
(1790640808.853978) vcan0 100#05F6000000000000
(1790640808.854044) vcan0 200#4500000000000000
(1790640808.854864) vcan0 300#FFEC000000000000
(1790640808.858651) vcan0 100#05F5000000000000
(1790640808.858736) vcan0 300#FFE9000000000000
(1790640808.861746) vcan0 100#05F4000000000000
(1790640808.861830) vcan0 300#FFE8000000000000
(1790640808.864383) vcan0 100#05F3000000000000
(1790640808.864475) vcan0 300#FFE6000000000000
(1790640808.866447) vcan0 100#05F3000000000000
(1790640808.866558) vcan0 300#FFE5000000000000
(1790640808.868371) vcan0 100#05F2000000000000
(1790640808.868466) vcan0 300#FFE3000000000000
(1790640808.872590) vcan0 300#FFE1000000000000
(1790640808.877348) vcan0 300#FFDE000000000000
(1790640808.880080) vcan0 300#FFDC000000000000
(1790640808.881418) vcan0 100#05EE000000000000
(1790640808.881522) vcan0 300#FFDC000000000000
(1790640808.891305) vcan0 200#4500000000000000
(1790640808.891438) vcan0 300#FFD6000000000000
(1790640808.907143) vcan0 100#05E7000000000000
(1790640808.907387) vcan0 300#FFCC000000000000
(1790640808.927152) vcan0 100#05E1000000000000
(1790640808.927326) vcan0 300#FFC1000000000000
(1790640808.930555) vcan0 300#FFBF000000000000
(1790640808.932644) vcan0 300#FFBD000000000000
(1790640808.935159) vcan0 300#FFBC000000000000
(1790640808.938048) vcan0 300#FFBA000000000000
(1790640808.940248) vcan0 300#FFB9000000000000
(1790640808.956464) vcan0 100#05D9000000000000
(1790640808.956568) vcan0 200#4500000000000000
(1790640808.956585) vcan0 300#FFB0000000000000
(1790640808.957971) vcan0 300#FFAF000000000000
(1790640808.959865) vcan0 300#FFAE000000000000
(1790640808.961488) vcan0 100#05D8000000000000
(1790640808.961784) vcan0 300#FFAD000000000000
(1790640808.962979) vcan0 300#FFAC000000000000
(1790640808.982812) vcan0 100#05D2000000000000
(1790640808.982895) vcan0 300#FFA0000000000000
(1790640808.984856) vcan0 300#FF9F000000000000
(1790640808.995253) vcan0 200#4500000000000000
(1790640808.995717) vcan0 300#FF99000000000000
(1790640809.001955) vcan0 100#05CC000000000000
(1790640809.002236) vcan0 300#FF96000000000000
(1790640809.012803) vcan0 300#FF90000000000000
(1790640809.027576) vcan0 100#05C5000000000000
(1790640809.028322) vcan0 300#FF88000000000000
(1790640809.031784) vcan0 300#FF85000000000000
(1790640809.041453) vcan0 100#05C1000000000000
(1790640809.041889) vcan0 200#4500000000000000
(1790640809.041964) vcan0 300#FF80000000000000
(1790640809.042105) vcan0 400#0000000000000000
(1790640809.051599) vcan0 300#FF7A000000000000
(1790640809.063599) vcan0 100#05BB000000000000
(1790640809.063921) vcan0 300#FF74000000000000
(1790640809.073127) vcan0 300#FF6F000000000000
(1790640809.081803) vcan0 100#05B6000000000000
(1790640809.081884) vcan0 300#FF6A000000000000
(1790640809.091224) vcan0 200#4500000000000000
(1790640809.091473) vcan0 300#FF66000000000000
(1790640809.101719) vcan0 100#05B0000000000000
(1790640809.101772) vcan0 300#FF60000000000000
(1790640809.112725) vcan0 300#FF5B000000000000
(1790640809.121061) vcan0 100#05AB000000000000
(1790640809.121173) vcan0 300#FF56000000000000
(1790640809.132005) vcan0 300#FF51000000000000
(1790640809.142341) vcan0 100#05A5000000000000
(1790640809.142361) vcan0 200#4500000000000000
(1790640809.142367) vcan0 300#FF4C000000000000
(1790640809.152185) vcan0 300#FF47000000000000
(1790640809.162015) vcan0 100#059F000000000000
(1790640809.162037) vcan0 300#FF43000000000000
(1790640809.172883) vcan0 300#FF3E000000000000
(1790640809.181846) vcan0 100#059A000000000000
(1790640809.181903) vcan0 300#FF3A000000000000
(1790640809.193737) vcan0 200#4500000000000000
(1790640809.193788) vcan0 300#FF35000000000000
(1790640809.202149) vcan0 100#0594000000000000
(1790640809.202215) vcan0 300#FF31000000000000
(1790640809.211227) vcan0 300#FF2D000000000000
(1790640809.224093) vcan0 100#058E000000000000
(1790640809.225234) vcan0 300#FF28000000000000
(1790640809.231862) vcan0 300#FF24000000000000
(1790640809.242263) vcan0 100#0589000000000000
(1790640809.242416) vcan0 200#4500000000000000
(1790640809.242443) vcan0 300#FF20000000000000
(1790640809.256788) vcan0 300#FF1A000000000000
(1790640809.263629) vcan0 100#0583000000000000
(1790640809.263977) vcan0 300#FF18000000000000
(1790640809.271146) vcan0 300#FF15000000000000
(1790640809.294515) vcan0 100#057B000000000000
(1790640809.295037) vcan0 200#4500000000000000
(1790640809.295110) vcan0 300#FF0D000000000000
(1790640809.296870) vcan0 300#FF0C000000000000
(1790640809.301545) vcan0 100#0579000000000000
(1790640809.301809) vcan0 300#FF0A000000000000
(1790640809.324709) vcan0 100#0573000000000000
(1790640809.324839) vcan0 300#FF02000000000000
(1790640809.327718) vcan0 300#FF02000000000000
(1790640809.338202) vcan0 300#FEFE000000000000
(1790640809.342097) vcan0 100#056E000000000000
(1790640809.342227) vcan0 200#4500000000000000
(1790640809.342248) vcan0 300#FEFD000000000000
(1790640809.351417) vcan0 300#FEFA000000000000
(1790640809.368624) vcan0 100#0566000000000000
(1790640809.368750) vcan0 300#FEF5000000000000
(1790640809.372399) vcan0 300#FEF4000000000000
(1790640809.383101) vcan0 100#0563000000000000
(1790640809.383732) vcan0 300#FEF2000000000000
(1790640809.396073) vcan0 200#4500000000000000
(1790640809.396500) vcan0 300#FEEE000000000000
(1790640809.402889) vcan0 100#055D000000000000
(1790640809.403096) vcan0 300#FEED000000000000
(1790640809.414017) vcan0 300#FEEA000000000000
(1790640809.424553) vcan0 100#0557000000000000
(1790640809.424889) vcan0 300#FEE8000000000000
(1790640809.432817) vcan0 300#FEE6000000000000
(1790640809.441766) vcan0 100#0553000000000000
(1790640809.442029) vcan0 200#4500000000000000
(1790640809.442074) vcan0 300#FEE4000000000000
(1790640809.453360) vcan0 300#FEE2000000000000
(1790640809.462834) vcan0 100#054D000000000000
(1790640809.463258) vcan0 300#FEE1000000000000
(1790640809.477708) vcan0 300#FEDE000000000000
(1790640809.484998) vcan0 100#0547000000000000
(1790640809.485287) vcan0 300#FEDD000000000000
(1790640809.491156) vcan0 200#4500000000000000
(1790640809.491411) vcan0 300#FEDC000000000000
(1790640809.509189) vcan0 100#0540000000000000
(1790640809.509371) vcan0 300#FEDA000000000000
(1790640809.511272) vcan0 300#FEDA000000000000
(1790640809.524220) vcan0 100#053C000000000000
(1790640809.524636) vcan0 300#FED8000000000000
(1790640809.533372) vcan0 300#FED8000000000000
(1790640809.551332) vcan0 100#0535000000000000
(1790640809.551546) vcan0 200#4500000000000000
(1790640809.551573) vcan0 300#FED6000000000000
(1790640809.551602) vcan0 400#0100000000000000
(1790640809.551619) vcan0 500#1300000000000000
(1790640809.551637) vcan0 7DF#0201050000000000
(1790640809.553794) vcan0 300#FED6000000000000
(1790640809.563790) vcan0 100#0532000000000000
(1790640809.563901) vcan0 300#FED6000000000000
(1790640809.572126) vcan0 300#FED5000000000000
(1790640809.586709) vcan0 100#052B000000000000
(1790640809.586736) vcan0 300#FED5000000000000
(1790640809.593312) vcan0 200#4500000000000000
(1790640809.593341) vcan0 300#FED5000000000000
(1790640809.602081) vcan0 100#0527000000000000
(1790640809.602148) vcan0 300#FED5000000000000
(1790640809.612608) vcan0 300#FED5000000000000
(1790640809.626012) vcan0 100#0521000000000000
(1790640809.626106) vcan0 300#FED5000000000000
(1790640809.632846) vcan0 300#FED5000000000000
(1790640809.642744) vcan0 100#051C000000000000
(1790640809.642778) vcan0 200#4500000000000000
(1790640809.642790) vcan0 300#FED5000000000000
(1790640809.654367) vcan0 300#FED6000000000000
(1790640809.665598) vcan0 100#0516000000000000
(1790640809.665654) vcan0 300#FED7000000000000
(1790640809.672818) vcan0 300#FED7000000000000
(1790640809.686499) vcan0 100#0511000000000000
(1790640809.686648) vcan0 300#FED8000000000000
(1790640809.698188) vcan0 200#4500000000000000
(1790640809.698247) vcan0 300#FEDA000000000000
(1790640809.701807) vcan0 100#050D000000000000
(1790640809.702069) vcan0 300#FEDA000000000000
(1790640809.712817) vcan0 300#FEDB000000000000
(1790640809.724677) vcan0 100#0507000000000000
(1790640809.724775) vcan0 300#FEDD000000000000
(1790640809.731839) vcan0 300#FEDE000000000000
(1790640809.741240) vcan0 100#0502000000000000
(1790640809.741273) vcan0 200#4500000000000000
(1790640809.741286) vcan0 300#FEE0000000000000
(1790640809.759769) vcan0 300#FEE3000000000000
(1790640809.767487) vcan0 100#04FC000000000000
(1790640809.767544) vcan0 300#FEE4000000000000
(1790640809.774926) vcan0 300#FEE6000000000000
(1790640809.782609) vcan0 100#04F8000000000000
(1790640809.782726) vcan0 300#FEE7000000000000
(1790640809.791870) vcan0 200#4500000000000000
(1790640809.791997) vcan0 300#FEE9000000000000
(1790640809.808004) vcan0 100#04F1000000000000
(1790640809.808066) vcan0 300#FEED000000000000
(1790640809.823314) vcan0 100#04ED000000000000
(1790640809.823386) vcan0 300#FEF1000000000000
(1790640809.834872) vcan0 300#FEF4000000000000
(1790640809.836749) vcan0 300#FEF4000000000000
(1790640809.843220) vcan0 100#04E8000000000000
(1790640809.843367) vcan0 200#4500000000000000
(1790640809.843410) vcan0 300#FEF6000000000000
(1790640809.854401) vcan0 300#FEF9000000000000
(1790640809.862268) vcan0 100#04E3000000000000
(1790640809.862408) vcan0 300#FEFB000000000000
(1790640809.872117) vcan0 300#FEFE000000000000
(1790640809.883739) vcan0 100#04DD000000000000
(1790640809.883795) vcan0 300#FF02000000000000
(1790640809.896501) vcan0 200#4500000000000000
(1790640809.896559) vcan0 300#FF06000000000000
(1790640809.906108) vcan0 100#04D7000000000000
(1790640809.906166) vcan0 300#FF09000000000000
(1790640809.911938) vcan0 300#FF0B000000000000
(1790640809.927769) vcan0 100#04D2000000000000
(1790640809.927934) vcan0 300#FF11000000000000
(1790640809.943147) vcan0 100#04CE000000000000
(1790640809.943218) vcan0 200#4500000000000000
(1790640809.943252) vcan0 300#FF16000000000000
(1790640809.956151) vcan0 300#FF1B000000000000
(1790640809.959505) vcan0 300#FF1D000000000000
(1790640809.961529) vcan0 100#04C9000000000000
(1790640809.961594) vcan0 300#FF1D000000000000
(1790640809.973322) vcan0 300#FF22000000000000
(1790640809.995793) vcan0 100#04C0000000000000
(1790640809.995933) vcan0 200#4500000000000000
(1790640809.995986) vcan0 300#FF2B000000000000
(1790640810.008995) vcan0 100#04BD000000000000
(1790640810.009091) vcan0 300#FF31000000000000
(1790640810.010891) vcan0 300#FF32000000000000
(1790640810.012981) vcan0 300#FF33000000000000
(1790640810.024710) vcan0 100#04B9000000000000
(1790640810.024823) vcan0 300#FF38000000000000
(1790640810.032220) vcan0 300#FF3B000000000000
(1790640810.044201) vcan0 100#04B4000000000000
(1790640810.044268) vcan0 200#4500000000000000
(1790640810.044299) vcan0 300#FF41000000000000
(1790640810.044335) vcan0 400#0000000000000000
(1790640810.055078) vcan0 300#FF46000000000000
(1790640810.062067) vcan0 100#04AF000000000000
(1790640810.062376) vcan0 300#FF49000000000000
(1790640810.071497) vcan0 300#FF4E000000000000
(1790640810.082014) vcan0 100#04AA000000000000
(1790640810.082041) vcan0 300#FF53000000000000
(1790640810.091081) vcan0 200#4500000000000000
(1790640810.091166) vcan0 300#FF57000000000000
(1790640810.102804) vcan0 100#04A5000000000000
(1790640810.102900) vcan0 300#FF5D000000000000
(1790640810.112732) vcan0 300#FF62000000000000
(1790640810.122939) vcan0 100#04A0000000000000
(1790640810.122977) vcan0 300#FF67000000000000
(1790640810.131458) vcan0 300#FF6C000000000000
(1790640810.142126) vcan0 100#049B000000000000
(1790640810.142222) vcan0 200#4500000000000000
(1790640810.142253) vcan0 300#FF71000000000000
(1790640810.151132) vcan0 300#FF76000000000000
(1790640810.166193) vcan0 100#0495000000000000
(1790640810.166263) vcan0 300#FF7E000000000000
(1790640810.176281) vcan0 300#FF84000000000000
(1790640810.183027) vcan0 100#0491000000000000
(1790640810.183142) vcan0 300#FF87000000000000
(1790640810.205852) vcan0 100#048B000000000000
(1790640810.206003) vcan0 200#4500000000000000
(1790640810.206049) vcan0 300#FF94000000000000
(1790640810.207277) vcan0 300#FF95000000000000
(1790640810.212980) vcan0 300#FF98000000000000
(1790640810.223606) vcan0 100#0487000000000000
(1790640810.223710) vcan0 300#FF9E000000000000
(1790640810.232934) vcan0 300#FFA3000000000000
(1790640810.243456) vcan0 100#0482000000000000
(1790640810.243522) vcan0 200#4500000000000000
(1790640810.243551) vcan0 300#FFA9000000000000
(1790640810.266629) vcan0 100#047C000000000000
(1790640810.266743) vcan0 300#FFB7000000000000
(1790640810.268475) vcan0 300#FFB8000000000000
(1790640810.273299) vcan0 300#FFBB000000000000
(1790640810.292430) vcan0 100#0476000000000000
(1790640810.292601) vcan0 200#4500000000000000
(1790640810.292956) vcan0 300#FFC5000000000000
(1790640810.294501) vcan0 300#FFC7000000000000
(1790640810.301349) vcan0 100#0474000000000000
(1790640810.301447) vcan0 300#FFCB000000000000
(1790640810.315817) vcan0 300#FFD4000000000000
(1790640810.331604) vcan0 100#046C000000000000
(1790640810.331760) vcan0 300#FFDD000000000000
(1790640810.345702) vcan0 100#0469000000000000
(1790640810.345843) vcan0 200#4500000000000000
(1790640810.345899) vcan0 300#FFE6000000000000
(1790640810.348253) vcan0 300#FFE7000000000000
(1790640810.356321) vcan0 300#FFEC000000000000
(1790640810.363491) vcan0 100#0464000000000000
(1790640810.363554) vcan0 300#FFF0000000000000
(1790640810.372213) vcan0 300#FFF5000000000000
(1790640810.381455) vcan0 100#0460000000000000
(1790640810.381511) vcan0 300#FFFB000000000000
(1790640810.391430) vcan0 200#4500000000000000
(1790640810.391512) vcan0 300#0000000000000000
(1790640810.404183) vcan0 100#045B000000000000
(1790640810.404337) vcan0 300#0008000000000000
(1790640810.414121) vcan0 300#000E000000000000
(1790640810.421131) vcan0 100#0456000000000000
(1790640810.421173) vcan0 300#0012000000000000
(1790640810.441035) vcan0 300#001E000000000000
(1790640810.443588) vcan0 100#0451000000000000
(1790640810.443653) vcan0 200#4500000000000000
(1790640810.443691) vcan0 300#001F000000000000
(1790640810.451364) vcan0 300#0024000000000000
(1790640810.473531) vcan0 100#044A000000000000
(1790640810.473593) vcan0 300#0031000000000000
(1790640810.476385) vcan0 300#0033000000000000
(1790640810.485791) vcan0 100#0447000000000000
(1790640810.485927) vcan0 300#0038000000000000
(1790640810.492763) vcan0 200#4500000000000000
(1790640810.492911) vcan0 300#003C000000000000
(1790640810.503706) vcan0 100#0443000000000000
(1790640810.503820) vcan0 300#0043000000000000
(1790640810.519834) vcan0 300#004C000000000000
(1790640810.532597) vcan0 100#043C000000000000
(1790640810.532665) vcan0 300#0054000000000000
(1790640810.534254) vcan0 300#0055000000000000
(1790640810.541544) vcan0 100#043A000000000000
(1790640810.541681) vcan0 200#4500000000000000
(1790640810.541733) vcan0 300#0059000000000000
(1790640810.542490) vcan0 400#0400000000000000
(1790640810.542581) vcan0 500#1400000000000000
(1790640810.567013) vcan0 100#0434000000000000
(1790640810.567130) vcan0 300#0067000000000000
(1790640810.568708) vcan0 300#0068000000000000
(1790640810.573224) vcan0 300#006B000000000000
(1790640810.583096) vcan0 100#0430000000000000
(1790640810.583202) vcan0 300#0070000000000000
(1790640810.592498) vcan0 200#4500000000000000
(1790640810.592609) vcan0 300#0075000000000000
(1790640810.602754) vcan0 100#042B000000000000
(1790640810.602892) vcan0 300#007B000000000000
(1790640810.613015) vcan0 300#0081000000000000
(1790640810.629015) vcan0 100#0425000000000000
(1790640810.629051) vcan0 300#0089000000000000
(1790640810.639593) vcan0 300#008F000000000000
(1790640810.646444) vcan0 100#0421000000000000
(1790640810.646497) vcan0 200#4500000000000000
(1790640810.646521) vcan0 300#0092000000000000
(1790640810.652076) vcan0 300#0095000000000000
(1790640810.662501) vcan0 100#041D000000000000
(1790640810.662589) vcan0 300#009B000000000000
(1790640810.674280) vcan0 300#00A1000000000000
(1790640810.681236) vcan0 100#0419000000000000
(1790640810.681325) vcan0 300#00A4000000000000
(1790640810.691145) vcan0 200#4500000000000000
(1790640810.691190) vcan0 300#00A9000000000000
(1790640810.712812) vcan0 100#0412000000000000
(1790640810.712871) vcan0 300#00B4000000000000
(1790640810.714774) vcan0 300#00B5000000000000
(1790640810.722514) vcan0 100#040F000000000000
(1790640810.722549) vcan0 300#00B8000000000000
(1790640810.731288) vcan0 300#00BC000000000000
(1790640810.743124) vcan0 100#040B000000000000
(1790640810.743207) vcan0 200#4500000000000000
(1790640810.743236) vcan0 300#00C2000000000000
(1790640810.754282) vcan0 300#00C7000000000000
(1790640810.764591) vcan0 100#0406000000000000
(1790640810.764735) vcan0 300#00CC000000000000
(1790640810.779534) vcan0 300#00D2000000000000
(1790640810.790804) vcan0 100#0400000000000000
(1790640810.790948) vcan0 300#00D7000000000000
(1790640810.792658) vcan0 200#4500000000000000
(1790640810.792772) vcan0 300#00D8000000000000
(1790640810.813577) vcan0 100#03FA000000000000
(1790640810.813691) vcan0 300#00E0000000000000
(1790640810.815136) vcan0 300#00E1000000000000
(1790640810.827041) vcan0 100#03F7000000000000
(1790640810.827205) vcan0 300#00E5000000000000
(1790640810.838626) vcan0 300#00EA000000000000
(1790640810.842506) vcan0 100#03F4000000000000
(1790640810.842642) vcan0 200#4500000000000000
(1790640810.842696) vcan0 300#00EB000000000000
(1790640810.853490) vcan0 300#00EF000000000000
(1790640810.864680) vcan0 100#03EF000000000000
(1790640810.864838) vcan0 300#00F3000000000000
(1790640810.873440) vcan0 300#00F6000000000000
(1790640810.892103) vcan0 100#03E9000000000000
(1790640810.892257) vcan0 200#4500000000000000
(1790640810.892343) vcan0 300#00FC000000000000
(1790640810.898661) vcan0 300#00FF000000000000
(1790640810.901269) vcan0 100#03E7000000000000
(1790640810.901376) vcan0 300#00FF000000000000
(1790640810.911320) vcan0 300#0102000000000000
(1790640810.922288) vcan0 100#03E2000000000000
(1790640810.922432) vcan0 300#0106000000000000
(1790640810.932620) vcan0 300#0109000000000000
(1790640810.943905) vcan0 100#03DD000000000000
(1790640810.943961) vcan0 200#4500000000000000
(1790640810.943991) vcan0 300#010C000000000000
(1790640810.957096) vcan0 300#010F000000000000
(1790640810.965408) vcan0 100#03D8000000000000
(1790640810.965785) vcan0 300#0111000000000000
(1790640810.973801) vcan0 300#0113000000000000
(1790640810.985055) vcan0 100#03D4000000000000
(1790640810.985197) vcan0 300#0116000000000000
(1790640810.994406) vcan0 200#4500000000000000
(1790640810.994541) vcan0 300#0118000000000000
(1790640811.003373) vcan0 100#03D0000000000000
(1790640811.003482) vcan0 300#011A000000000000
(1790640811.016496) vcan0 300#011C000000000000
(1790640811.023742) vcan0 100#03CC000000000000
(1790640811.023807) vcan0 300#011E000000000000
(1790640811.031134) vcan0 300#011F000000000000
(1790640811.041098) vcan0 100#03C8000000000000
(1790640811.041137) vcan0 200#4500000000000000
(1790640811.041154) vcan0 300#0121000000000000
(1790640811.041176) vcan0 400#0000000000000000
(1790640811.053717) vcan0 300#0123000000000000
(1790640811.064070) vcan0 100#03C3000000000000
(1790640811.064196) vcan0 300#0124000000000000
(1790640811.071384) vcan0 300#0125000000000000
(1790640811.081642) vcan0 100#03BF000000000000
(1790640811.081671) vcan0 300#0126000000000000
